Id,Time[ns],0:SMBus: Address/Data
1,2862951600.00,Start
2,2862955600.00,Address write: 5A
3,2862976600.00,ACK
4,2862987440.00,Stop
5,2887329440.00,Start
6,2887777520.00,Address read: 5A
7,2891509960.00,ACK
8,2891973680.00,Data read: 00
9,2918975880.00,NACK
10,2918977120.00,Start repeat
11,2918988560.00,Address write: 5A
12,2919009560.00,NACK
13,2919015080.00,Stop
14,2946953200.00,Start
15,2946956880.00,Address write: 5A
16,2946977880.00,ACK
17,2946987280.00,Command: 10
18,2947008280.00,ACK
19,2947014280.00,Data write: 6B
20,2947014280.00,PEC OK: 6B
21,2947035280.00,ACK
22,2947042720.00,Stop
23,2968956920.00,Start
24,2968960600.00,Address write: 5A
25,2968981600.00,ACK
26,2968991000.00,Command: 11
27,2969012000.00,ACK
28,2969018000.00,Data write: 6C
29,2969018000.00,PEC OK: 6C
30,2969039000.00,ACK
31,2969046440.00,Stop
32,2998959840.00,Start
33,2998963520.00,Address write: 5A
34,2998984520.00,ACK
35,2998993920.00,Command: 12
36,2999014920.00,ACK
37,2999020920.00,Data write: 65
38,2999020920.00,PEC OK: 65
39,2999041880.00,ACK
40,2999049360.00,Stop
41,3030955680.00,Start
42,3030959520.00,Address read: 5A
43,3030980520.00,ACK
44,3031013800.00,Data read: 01
45,3031034760.00,ACK
46,3031051480.00,PEC OK: 09
47,3031051480.00,Data read: 09
48,3031072480.00,NACK
49,3031083600.00,Stop
50,3061955600.00,Start
51,3061959280.00,Address write: 5A
52,3061980280.00,ACK
53,3061989680.00,Command: 13
54,3062010680.00,ACK
55,3062016680.00,Data write: 62
56,3062016680.00,PEC OK: 62
57,3062037640.00,ACK
58,3062045120.00,Stop
59,3092960000.00,Start
60,3092963800.00,Address read: 5A
61,3092984800.00,ACK
62,3093018120.00,Data read: 80
63,3093039080.00,ACK
64,3093065560.00,Data read: 87
65,3093065560.00,PEC OK: 87
66,3093086520.00,NACK
67,3093097680.00,Stop
68,3122962120.00,Start
69,3122965800.00,Address write: 5A
70,3122986800.00,ACK
71,3122996200.00,Command: 12
72,3123017160.00,ACK
73,3123023160.00,PEC OK: 65
74,3123023160.00,Data write: 65
75,3123044160.00,ACK
76,3123051600.00,Stop
77,3145953760.00,Start
78,3145957560.00,Address read: 5A
79,3145978560.00,ACK
80,3146011840.00,Data read: 02
81,3146032840.00,ACK
82,3146049520.00,Data read: 00
83,3146049520.00,PEC OK: 00
84,3146070520.00,NACK
85,3146081640.00,Stop
86,3173958840.00,Start
87,3173962520.00,Address write: 5A
88,3173983520.00,ACK
89,3173992920.00,Command: 20
90,3174013880.00,ACK
91,3174023560.00,Data write: 00
92,3174044560.00,ACK
93,3174050560.00,Data write: EF
94,3174050560.00,PEC OK: EF
95,3174071560.00,ACK
96,3174079000.00,Stop
97,3205952600.00,Start
98,3205956280.00,Address write: 5A
99,3205977280.00,ACK
100,3205986680.00,Command: 21
101,3206007640.00,ACK
102,3206013680.00,Data write: 81
103,3206034680.00,ACK
104,3206040680.00,Data write: 74
105,3206040680.00,PEC OK: 74
106,3206061680.00,ACK
107,3206069160.00,Stop
108,3236961120.00,Start
109,3236964800.00,Address write: 5A
110,3236985800.00,ACK
111,3236995200.00,Command: 22
112,3237016200.00,ACK
113,3237023560.00,Start repeat
114,3237055360.00,Address read: 5A
115,3237076360.00,ACK
116,3237163000.00,Data read: 00
117,3237183960.00,ACK
118,3237201600.00,Data read: 5B
119,3237201600.00,PEC OK: 5B
120,3237222560.00,NACK
121,3237233680.00,Stop
122,3268956040.00,Start
123,3268959720.00,Address write: 5A
124,3268980720.00,ACK
125,3268990120.00,Command: 23
126,3269011080.00,ACK
127,3269018480.00,Start repeat
128,3269052240.00,Address read: 5A
129,3269073240.00,ACK
130,3269162800.00,Data read: 80
131,3269183800.00,ACK
132,3269201400.00,Data read: B9
133,3269201400.00,PEC OK: B9
134,3269222360.00,NACK
135,3269233480.00,Stop
136,3302953320.00,Start
137,3302957000.00,Address write: 5A
138,3302977960.00,ACK
139,3302987360.00,Command: 30
140,3303008360.00,ACK
141,3303014360.00,Data write: 34
142,3303035360.00,ACK
143,3303041360.00,Data write: 02
144,3303062360.00,ACK
145,3303068360.00,Data write: 82
146,3303068360.00,PEC OK: 82
147,3303089360.00,ACK
148,3303096840.00,Stop
149,3333963920.00,Start
150,3333967600.00,Address write: 5A
151,3333988600.00,ACK
152,3333997960.00,Command: 31
153,3334018960.00,ACK
154,3334024960.00,Data write: CD
155,3334045960.00,ACK
156,3334051960.00,Data write: 83
157,3334072920.00,ACK
158,3334078920.00,Data write: CE
159,3334078920.00,PEC OK: CE
160,3334099920.00,ACK
161,3334107400.00,Stop
162,3362957480.00,Start
163,3362961160.00,Address write: 5A
164,3362982160.00,ACK
165,3362991520.00,Command: 32
166,3363012520.00,ACK
167,3363019840.00,Start repeat
168,3363059720.00,Address read: 5A
169,3363080720.00,ACK
170,3363184720.00,Data read: 32
171,3363205680.00,ACK
172,3363224200.00,Data read: 00
173,3363245200.00,ACK
174,3363254440.00,Data read: 32
175,3363254440.00,PEC OK: 32
176,3363275440.00,NACK
177,3363286560.00,Stop
178,3397960560.00,Start
179,3397964200.00,Address write: 5A
180,3397985200.00,ACK
181,3397994600.00,Command: 33
182,3398015600.00,ACK
183,3398022960.00,Start repeat
184,3398064760.00,Address read: 5A
185,3398085760.00,ACK
186,3398192640.00,Data read: 33
187,3398213640.00,ACK
188,3398232160.00,Data read: 80
189,3398253160.00,ACK
190,3398262440.00,Data read: B8
191,3398262440.00,PEC OK: B8
192,3398283440.00,NACK
193,3398294560.00,Stop
194,3428959600.00,Start
195,3428963280.00,Address write: 5A
196,3428984280.00,ACK
197,3428993680.00,Command: 40
198,3429014680.00,ACK
199,3429020680.00,Data write: 08
200,3429041640.00,ACK
201,3429047680.00,Data write: 10
202,3429068680.00,ACK
203,3429074680.00,Data write: 11
204,3429095680.00,ACK
205,3429101680.00,Data write: 12
206,3429122680.00,ACK
207,3429128680.00,Data write: 13
208,3429149680.00,ACK
209,3429155680.00,Data write: 14
210,3429176680.00,ACK
211,3429182680.00,Data write: 15
212,3429203680.00,ACK
213,3429209680.00,Data write: 16
214,3429230680.00,ACK
215,3429236680.00,Data write: 04
216,3429257680.00,ACK
217,3429263680.00,Data write: 43
218,3429263680.00,PEC OK: 43
219,3429284680.00,ACK
220,3429292120.00,Stop
221,3456961560.00,Start
222,3456965240.00,Address write: 5A
223,3456986200.00,ACK
224,3456995600.00,Command: 41
225,3457016600.00,ACK
226,3457022600.00,Data write: 10
227,3457043600.00,ACK
228,3457049600.00,Data write: 20
229,3457070600.00,ACK
230,3457076600.00,Data write: 21
231,3457097600.00,ACK
232,3457103600.00,Data write: 22
233,3457124600.00,ACK
234,3457130560.00,Data write: 23
235,3457151560.00,ACK
236,3457157560.00,Data write: 24
237,3457178560.00,ACK
238,3457184560.00,Data write: 25
239,3457205560.00,ACK
240,3457211560.00,Data write: 26
241,3457232560.00,ACK
242,3457238560.00,Data write: 27
243,3457259520.00,ACK
244,3457276400.00,Data write: 28
245,3457297400.00,ACK
246,3457303400.00,Data write: 29
247,3457324400.00,ACK
248,3457330400.00,Data write: 2A
249,3457351400.00,ACK
250,3457357400.00,Data write: 2B
251,3457378360.00,ACK
252,3457384360.00,Data write: 2C
253,3457405360.00,ACK
254,3457411360.00,Data write: 2D
255,3457432360.00,ACK
256,3457438360.00,Data write: 2E
257,3457459320.00,ACK
258,3457465320.00,Data write: 85
259,3457486360.00,ACK
260,3457492360.00,Data write: 6D
261,3457492360.00,PEC OK: 6D
262,3457513320.00,ACK
263,3457520800.00,Stop
264,3490958800.00,Start
265,3490962640.00,Address write: 5A
266,3490983640.00,ACK
267,3490993040.00,Command: 42
268,3491014040.00,ACK
269,3491021400.00,Start repeat
270,3491069320.00,Address read: 5A
271,3491090320.00,ACK
272,3491250200.00,Data read: 08
273,3491271200.00,ACK
274,3491300520.00,Data read: 10
275,3491321520.00,ACK
276,3491330760.00,Data read: 11
277,3491351760.00,ACK
278,3491361040.00,Data read: 12
279,3491382040.00,ACK
280,3491391280.00,Data read: 13
281,3491412280.00,ACK
282,3491421560.00,Data read: 14
283,3491442520.00,ACK
284,3491451800.00,Data read: 15
285,3491472800.00,ACK
286,3491482040.00,Data read: 16
287,3491503040.00,ACK
288,3491512320.00,Data read: 00
289,3491533320.00,ACK
290,3491542560.00,Data read: AC
291,3491542560.00,PEC OK: AC
292,3491563560.00,NACK
293,3491574680.00,Stop
294,3522964200.00,Start
295,3522968040.00,Address write: 5A
296,3522989000.00,ACK
297,3522998400.00,Command: 43
298,3523019400.00,ACK
299,3523026760.00,Start repeat
300,3523076640.00,Address read: 5A
301,3523097640.00,ACK
302,3523306520.00,Data read: 10
303,3523327520.00,ACK
304,3523364120.00,Data read: 20
305,3523385160.00,ACK
306,3523394400.00,Data read: 21
307,3523415400.00,ACK
308,3523424640.00,Data read: 22
309,3523445640.00,ACK
310,3523454920.00,Data read: 23
311,3523475920.00,ACK
312,3523485160.00,Data read: 24
313,3523506160.00,ACK
314,3523515440.00,Data read: 25
315,3523536440.00,ACK
316,3523545680.00,Data read: 26
317,3523566680.00,ACK
318,3523575960.00,Data read: 27
319,3523596960.00,ACK
320,3523606200.00,Data read: 28
321,3523627200.00,ACK
322,3523636480.00,Data read: 29
323,3523657440.00,ACK
324,3523666720.00,Data read: 2A
325,3523687720.00,ACK
326,3523697000.00,Data read: 2B
327,3523717960.00,ACK
328,3523727200.00,Data read: 2C
329,3523748200.00,ACK
330,3523757480.00,Data read: 2D
331,3523778480.00,ACK
332,3523787720.00,Data read: 2E
333,3523808720.00,ACK
334,3523818000.00,Data read: 80
335,3523839000.00,ACK
336,3523848240.00,Data read: 85
337,3523848240.00,PEC OK: 85
338,3523869240.00,NACK
339,3523880400.00,Stop
340,3552960560.00,Start
341,3552964240.00,Address write: 5A
342,3552985240.00,ACK
343,3552994600.00,Command: 12
344,3553015600.00,ACK
345,3553021600.00,Data write: 65
346,3553021600.00,PEC OK: 65
347,3553042600.00,ACK
348,3553072960.00,Stop
349,3582956440.00,Start
350,3582960280.00,Address read: 5A
351,3582981280.00,ACK
352,3583034160.00,Data read: 03
353,3583055160.00,ACK
354,3583071880.00,Data read: 07
355,3583071880.00,PEC OK: 07
356,3583092840.00,NACK
357,3583104000.00,Stop
358,3615963560.00,Start
359,3615967240.00,Address write: 5A
360,3615988240.00,ACK
361,3615997600.00,Command: 50
362,3616018600.00,ACK
363,3616024600.00,Data write: 34
364,3616045600.00,ACK
365,3616051600.00,Data write: 06
366,3616072560.00,ACK
367,3616085200.00,Start repeat
368,3616181400.00,Address read: 5A
369,3616202360.00,ACK
370,3616361280.00,Data read: 45
371,3616382240.00,ACK
372,3616402560.00,Data read: 00
373,3616423520.00,ACK
374,3616432800.00,Data read: F8
375,3616432800.00,PEC OK: F8
376,3616453800.00,NACK
377,3616464920.00,Stop
378,3646964480.00,Start
379,3646968120.00,Address write: 5A
380,3646989120.00,ACK
381,3646998520.00,Command: 51
382,3647019520.00,ACK
383,3647025520.00,Data write: CD
384,3647046520.00,ACK
385,3647052480.00,Data write: 87
386,3647073480.00,ACK
387,3647080840.00,Start repeat
388,3647180920.00,Address read: 5A
389,3647201880.00,ACK
390,3647364600.00,Data read: 32
391,3647385600.00,ACK
392,3647405880.00,Data read: 80
393,3647426880.00,ACK
394,3647436120.00,Data read: C4
395,3647436120.00,PEC OK: C4
396,3647457120.00,NACK
397,3647468280.00,Stop
398,3679966920.00,Start
399,3679970560.00,Address write: 5A
400,3679991560.00,ACK
401,3680000960.00,Command: 60
402,3680021960.00,ACK
403,3680028240.00,Data write: 08
404,3680049240.00,ACK
405,3680055240.00,Data write: 01
406,3680076200.00,ACK
407,3680082200.00,Data write: 02
408,3680103200.00,ACK
409,3680109200.00,Data write: 03
410,3680130200.00,ACK
411,3680136200.00,Data write: 04
412,3680157160.00,ACK
413,3680163160.00,Data write: 05
414,3680184160.00,ACK
415,3680190160.00,Data write: 06
416,3680211160.00,ACK
417,3680217160.00,Data write: 07
418,3680238160.00,ACK
419,3680244200.00,Data write: 08
420,3680265200.00,ACK
421,3680272560.00,Start repeat
422,3680377440.00,Address read: 5A
423,3680398440.00,ACK
424,3680654920.00,Data read: 08
425,3680675920.00,ACK
426,3680708880.00,Data read: 02
427,3680729880.00,ACK
428,3680739160.00,Data read: 03
429,3680760160.00,ACK
430,3680769400.00,Data read: 04
431,3680790400.00,ACK
432,3680804080.00,Data read: 05
433,3680825040.00,ACK
434,3680834280.00,Data read: 06
435,3680855280.00,ACK
436,3680864560.00,Data read: 07
437,3680885520.00,ACK
438,3680894760.00,Data read: 08
439,3680915760.00,ACK
440,3680925040.00,Data read: 00
441,3680946040.00,ACK
442,3680955280.00,Data read: EB
443,3680955280.00,PEC OK: EB
444,3680976280.00,NACK
445,3680987400.00,Stop
446,3711959440.00,Start
447,3711963120.00,Address write: 5A
448,3711984120.00,ACK
449,3711993520.00,Command: 61
450,3712014480.00,ACK
451,3712020480.00,Data write: 10
452,3712041480.00,ACK
453,3712047480.00,Data write: 11
454,3712068480.00,ACK
455,3712074760.00,Data write: 12
456,3712095720.00,ACK
457,3712101760.00,Data write: 13
458,3712122760.00,ACK
459,3712128760.00,Data write: 14
460,3712149760.00,ACK
461,3712155760.00,Data write: 15
462,3712176760.00,ACK
463,3712182760.00,Data write: 16
464,3712203760.00,ACK
465,3712209760.00,Data write: 17
466,3712230760.00,ACK
467,3712236760.00,Data write: 18
468,3712257760.00,ACK
469,3712263760.00,Data write: 19
470,3712284760.00,ACK
471,3712290760.00,Data write: 1A
472,3712311760.00,ACK
473,3712317760.00,Data write: 1B
474,3712338760.00,ACK
475,3712344760.00,Data write: 1C
476,3712365760.00,ACK
477,3712371760.00,Data write: 1D
478,3712392720.00,ACK
479,3712398720.00,Data write: 1E
480,3712419720.00,ACK
481,3712425720.00,Data write: 1F
482,3712446720.00,ACK
483,3712452720.00,Data write: 89
484,3712473720.00,ACK
485,3712481080.00,Start repeat
486,3712589880.00,Address read: 5A
487,3712610840.00,ACK
488,3712969360.00,Data read: 10
489,3712990320.00,ACK
490,3713042160.00,Data read: 89
491,3713063120.00,ACK
492,3713072400.00,Data read: 1F
493,3713093360.00,ACK
494,3713102640.00,Data read: 1E
495,3713123600.00,ACK
496,3713132880.00,Data read: 1D
497,3713153880.00,ACK
498,3713163120.00,Data read: 1C
499,3713184120.00,ACK
500,3713193360.00,Data read: 1B
501,3713214360.00,ACK
502,3713223640.00,Data read: 1A
503,3713244640.00,ACK
504,3713253880.00,Data read: 19
505,3713274880.00,ACK
506,3713284160.00,Data read: 18
507,3713305160.00,ACK
508,3713314400.00,Data read: 17
509,3713335400.00,ACK
510,3713344680.00,Data read: 16
511,3713365640.00,ACK
512,3713374920.00,Data read: 15
513,3713395920.00,ACK
514,3713405160.00,Data read: 14
515,3713426160.00,ACK
516,3713435440.00,Data read: 13
517,3713456440.00,ACK
518,3713465720.00,Data read: 12
519,3713486720.00,ACK
520,3713495960.00,Data read: 80
521,3713516960.00,ACK
522,3713526240.00,Data read: 7C
523,3713526240.00,PEC OK: 7C
524,3713547240.00,NACK
525,3713558360.00,Stop
526,3743956680.00,Start
527,3743960360.00,Address write: 5A
528,3743981360.00,ACK
529,3743990760.00,Command: 12
530,3744011720.00,ACK
531,3744017720.00,Data write: 65
532,3744017720.00,PEC OK: 65
533,3744038720.00,ACK
534,3744046160.00,Stop
535,3777964080.00,Start
536,3777967880.00,Address read: 5A
537,3777988880.00,ACK
538,3778022160.00,Data read: 04
539,3778043160.00,ACK
540,3778059880.00,Data read: 12
541,3778059880.00,PEC OK: 12
542,3778080880.00,NACK
543,3778092000.00,Stop
544,3803960640.00,Start
545,3803964320.00,Address write: 5A
546,3803985320.00,ACK
547,3803994720.00,Command: 20
548,3804015680.00,ACK
549,3804021680.00,Data write: 4A
550,3804042680.00,ACK
551,3804048680.00,Data write: E1
552,3804069680.00,ACK
553,3804077160.00,Stop
554,3824957800.00,Start
555,3824961480.00,Address write: 5A
556,3824982480.00,ACK
557,3824991880.00,Command: 12
558,3825012880.00,ACK
559,3825018880.00,Data write: 65
560,3825018880.00,PEC OK: 65
561,3825039840.00,ACK
562,3825047320.00,Stop
563,3851966400.00,Start
564,3851970240.00,Address read: 5A
565,3851991240.00,ACK
566,3852024520.00,Data read: 05
567,3852045480.00,ACK
568,3852062400.00,Data read: 15
569,3852062400.00,PEC OK: 15
570,3852083400.00,NACK
571,3852094520.00,Stop
572,4359970760.00,Start
573,4359974760.00,Address write: 5A
574,4359995760.00,ACK
575,4360006600.00,Stop
576,4391329960.00,Start
577,4391778040.00,Address read: 5A
578,4395510200.00,ACK
579,4422981160.00,Start repeat
580,4422992600.00,Address write: 5A
581,4423013600.00,NACK
582,4423019000.00,Stop
583,4450967240.00,Start
584,4450970920.00,Address write: 5A
585,4450991920.00,ACK
586,4451001320.00,Command: 10
587,4451022320.00,ACK
588,4451028280.00,Data write: 6B
589,4451028280.00,PEC OK: 6B
590,4451049280.00,ACK
591,4451056760.00,Stop
592,4474963520.00,Start
593,4474967200.00,Address write: 5A
594,4474988200.00,ACK
595,4474997600.00,Command: 11
596,4475018600.00,ACK
597,4475024600.00,Data write: 6C
598,4475024600.00,PEC OK: 6C
599,4475045600.00,ACK
600,4475069560.00,Stop
601,4501965640.00,Start
602,4501969320.00,Address write: 5A
603,4501990320.00,ACK
604,4502013680.00,Command: 12
605,4502034680.00,ACK
606,4502040680.00,Data write: 65
607,4502040680.00,PEC OK: 65
608,4502061680.00,ACK
609,4502069120.00,Stop
610,4533973040.00,Start
611,4533976840.00,Address read: 5A
612,4533997840.00,ACK
613,4534031120.00,Data read: 07
614,4534052120.00,ACK
615,4534068840.00,Data read: 1B
616,4534068840.00,PEC OK: 1B
617,4534089840.00,NACK
618,4534100960.00,Stop
619,4565968000.00,Start
620,4565971680.00,Address write: 5A
621,4565992680.00,ACK
622,4566002080.00,Command: 13
623,4566023080.00,ACK
624,4566029080.00,Data write: 62
625,4566029080.00,PEC OK: 62
626,4566050040.00,ACK
627,4566057520.00,Stop
628,4597972360.00,Start
629,4597976200.00,Address read: 5A
630,4597997200.00,ACK
631,4598030520.00,Data read: 81
632,4598051520.00,ACK
633,4598068200.00,Data read: 80
634,4598068200.00,PEC OK: 80
635,4598089240.00,NACK
636,4598100360.00,Stop
637,4628965520.00,Start
638,4628969200.00,Address write: 5A
639,4628990200.00,ACK
640,4628999600.00,Command: 12
641,4629020600.00,ACK
642,4629026600.00,Data write: 65
643,4629026600.00,PEC OK: 65
644,4629047600.00,ACK
645,4629055040.00,Stop
646,4660971680.00,Start
647,4660975520.00,Address read: 5A
648,4660996520.00,ACK
649,4661029800.00,Data read: 08
650,4661050800.00,ACK
651,4661067480.00,Data read: 36
652,4661067480.00,PEC OK: 36
653,4661088480.00,NACK
654,4661099600.00,Stop
655,4690967280.00,Start
656,4690970960.00,Address write: 5A
657,4690991960.00,ACK
658,4691001360.00,Command: 20
659,4691022320.00,ACK
660,4691028320.00,Data write: 00
661,4691049320.00,ACK
662,4691055360.00,Data write: EF
663,4691055360.00,PEC OK: EF
664,4691076360.00,ACK
665,4691083840.00,Stop
666,4710963960.00,Start
667,4710967640.00,Address write: 5A
668,4710988640.00,ACK
669,4710998040.00,Command: 21
670,4711019040.00,ACK
671,4711025040.00,Data write: 81
672,4711046040.00,ACK
673,4711052040.00,Data write: 74
674,4711052040.00,PEC OK: 74
675,4711073040.00,ACK
676,4711080520.00,Stop
677,4739972000.00,Start
678,4739975680.00,Address write: 5A
679,4739996680.00,ACK
680,4740006080.00,Command: 22
681,4740027040.00,ACK
682,4740034400.00,Start repeat
683,4740066200.00,Address read: 5A
684,4740087200.00,ACK
685,4740173840.00,Data read: 01
686,4740194840.00,ACK
687,4740212440.00,Data read: 5C
688,4740212440.00,PEC OK: 5C
689,4740233440.00,NACK
690,4740244520.00,Stop
691,4770976400.00,Start
692,4770980040.00,Address write: 5A
693,4771001040.00,ACK
694,4771010440.00,Command: 23
695,4771031440.00,ACK
696,4771038800.00,Start repeat
697,4771072560.00,Address read: 5A
698,4771093560.00,ACK
699,4771183120.00,Data read: 81
700,4771204120.00,ACK
701,4771221720.00,Data read: BE
702,4771221720.00,PEC OK: BE
703,4771242680.00,NACK
704,4771253840.00,Stop
705,4803971920.00,Start
706,4803975600.00,Address write: 5A
707,4803996600.00,ACK
708,4804005960.00,Command: 30
709,4804026960.00,ACK
710,4804033000.00,Data write: 34
711,4804054000.00,ACK
712,4804060000.00,Data write: 02
713,4804081000.00,ACK
714,4804087000.00,Data write: 82
715,4804087000.00,PEC OK: 82
716,4804107960.00,ACK
717,4804115440.00,Stop
718,4833974960.00,Start
719,4833978640.00,Address write: 5A
720,4833999640.00,ACK
721,4834009040.00,Command: 31
722,4834030040.00,ACK
723,4834036040.00,Data write: CD
724,4834057040.00,ACK
725,4834063040.00,Data write: 83
726,4834084040.00,ACK
727,4834090040.00,Data write: CE
728,4834090040.00,PEC OK: CE
729,4834111000.00,ACK
730,4834118480.00,Stop
731,4852971720.00,Start
732,4852975400.00,Address write: 5A
733,4852996400.00,ACK
734,4853005760.00,Command: 32
735,4853026760.00,ACK
736,4853034120.00,Start repeat
737,4853073960.00,Address read: 5A
738,4853094960.00,ACK
739,4853198960.00,Data read: 32
740,4853219920.00,ACK
741,4853238440.00,Data read: 01
742,4853259440.00,ACK
743,4853273080.00,Data read: 35
744,4853273080.00,PEC OK: 35
745,4853294080.00,NACK
746,4853305200.00,Stop
747,4884972560.00,Start
748,4884976200.00,Address write: 5A
749,4884997200.00,ACK
750,4885006600.00,Command: 33
751,4885027600.00,ACK
752,4885034920.00,Start repeat
753,4885076760.00,Address read: 5A
754,4885097720.00,ACK
755,4885204600.00,Data read: 33
756,4885225560.00,ACK
757,4885248520.00,Data read: 81
758,4885269520.00,ACK
759,4885278760.00,Data read: BF
760,4885278760.00,PEC OK: BF
761,4885299720.00,NACK
762,4885310880.00,Stop
763,4914972240.00,Start
764,4914975920.00,Address write: 5A
765,4914996920.00,ACK
766,4915006280.00,Command: 40
767,4915027280.00,ACK
768,4915033280.00,Data write: 08
769,4915054280.00,ACK
770,4915060280.00,Data write: 10
771,4915081280.00,ACK
772,4915087280.00,Data write: 11
773,4915108240.00,ACK
774,4915131280.00,Data write: 12
775,4915152280.00,ACK
776,4915158280.00,Data write: 13
777,4915179240.00,ACK
778,4915185240.00,Data write: 14
779,4915206240.00,ACK
780,4915212240.00,Data write: 15
781,4915233240.00,ACK
782,4915239200.00,Data write: 16
783,4915260200.00,ACK
784,4915266200.00,Data write: 04
785,4915287200.00,ACK
786,4915293200.00,Data write: 43
787,4915293200.00,PEC OK: 43
788,4915314160.00,ACK
789,4915321640.00,Stop
790,4947971840.00,Start
791,4947975520.00,Address write: 5A
792,4947996520.00,ACK
793,4948005920.00,Command: 41
794,4948026920.00,ACK
795,4948032920.00,Data write: 10
796,4948053920.00,ACK
797,4948064320.00,Data write: 20
798,4948085280.00,ACK
799,4948091280.00,Data write: 21
800,4948112280.00,ACK
801,4948118280.00,Data write: 22
802,4948139280.00,ACK
803,4948145240.00,Data write: 23
804,4948166240.00,ACK
805,4948172240.00,Data write: 24
806,4948193240.00,ACK
807,4948199240.00,Data write: 25
808,4948220240.00,ACK
809,4948226200.00,Data write: 26
810,4948247200.00,ACK
811,4948253200.00,Data write: 27
812,4948274200.00,ACK
813,4948280240.00,Data write: 28
814,4948301240.00,ACK
815,4948307240.00,Data write: 29
816,4948328200.00,ACK
817,4948334200.00,Data write: 2A
818,4948355200.00,ACK
819,4948361280.00,Data write: 2B
820,4948382280.00,ACK
821,4948388280.00,Data write: 2C
822,4948409280.00,ACK
823,4948415280.00,Data write: 2D
824,4948436280.00,ACK
825,4948442280.00,Data write: 2E
826,4948463280.00,ACK
827,4948469280.00,Data write: 85
828,4948490280.00,ACK
829,4948496280.00,Data write: 6D
830,4948496280.00,PEC OK: 6D
831,4948517280.00,ACK
832,4948524760.00,Stop
833,4977974240.00,Start
834,4977978080.00,Address write: 5A
835,4977999080.00,ACK
836,4978008440.00,Command: 42
837,4978029440.00,ACK
838,4978036800.00,Start repeat
839,4978084720.00,Address read: 5A
840,4978105720.00,ACK
841,4978265400.00,Data read: 08
842,4978286400.00,ACK
843,4978311320.00,Data read: 10
844,4978332280.00,ACK
845,4978341560.00,Data read: 11
846,4978362560.00,ACK
847,4978371800.00,Data read: 12
848,4978392800.00,ACK
849,4978402080.00,Data read: 13
850,4978423040.00,ACK
851,4978432320.00,Data read: 14
852,4978453320.00,ACK
853,4978462600.00,Data read: 15
854,4978483560.00,ACK
855,4978492840.00,Data read: 16
856,4978513840.00,ACK
857,4978523120.00,Data read: 01
858,4978544080.00,ACK
859,4978553360.00,Data read: AB
860,4978553360.00,PEC OK: AB
861,4978574320.00,NACK
862,4978585480.00,Stop
863,5015971960.00,Start
864,5015975800.00,Address write: 5A
865,5015996800.00,ACK
866,5016006200.00,Command: 43
867,5016027200.00,ACK
868,5016034560.00,Start repeat
869,5016084400.00,Address read: 5A
870,5016105400.00,ACK
871,5016314240.00,Data read: 10
872,5016335240.00,ACK
873,5016367480.00,Data read: 20
874,5016388480.00,ACK
875,5016397720.00,Data read: 21
876,5016418720.00,ACK
877,5016428000.00,Data read: 22
878,5016448960.00,ACK
879,5016458240.00,Data read: 23
880,5016479240.00,ACK
881,5016488520.00,Data read: 24
882,5016509480.00,ACK
883,5016518760.00,Data read: 25
884,5016539760.00,ACK
885,5016549000.00,Data read: 26
886,5016570000.00,ACK
887,5016579280.00,Data read: 27
888,5016600240.00,ACK
889,5016609480.00,Data read: 28
890,5016630480.00,ACK
891,5016639720.00,Data read: 29
892,5016660720.00,ACK
893,5016670000.00,Data read: 2A
894,5016691000.00,ACK
895,5016700240.00,Data read: 2B
896,5016721240.00,ACK
897,5016730480.00,Data read: 2C
898,5016751480.00,ACK
899,5016760760.00,Data read: 2D
900,5016781720.00,ACK
901,5016791000.00,Data read: 2E
902,5016812000.00,ACK
903,5016821240.00,Data read: 81
904,5016842240.00,ACK
905,5016851520.00,Data read: 82
906,5016851520.00,PEC OK: 82
907,5016872480.00,NACK
908,5016883640.00,Stop
909,5044967440.00,Start
910,5044971120.00,Address write: 5A
911,5044992120.00,ACK
912,5045001520.00,Command: 12
913,5045022520.00,ACK
914,5045028480.00,Data write: 65
915,5045028480.00,PEC OK: 65
916,5045049480.00,ACK
917,5045056960.00,Stop
918,5074971040.00,Start
919,5074974880.00,Address read: 5A
920,5074995880.00,ACK
921,5075029160.00,Data read: 09
922,5075050120.00,ACK
923,5075066840.00,Data read: 31
924,5075066840.00,PEC OK: 31
925,5075087840.00,NACK
926,5075098960.00,Stop
927,5104978600.00,Start
928,5104982280.00,Address write: 5A
929,5105003280.00,ACK
930,5105012640.00,Command: 50
931,5105033640.00,ACK
932,5105039640.00,Data write: 34
933,5105060640.00,ACK
934,5105066640.00,Data write: 06
935,5105087600.00,ACK
936,5105094960.00,Start repeat
937,5105191160.00,Address read: 5A
938,5105212160.00,ACK
939,5105371040.00,Data read: 45
940,5105392040.00,ACK
941,5105412360.00,Data read: 01
942,5105433360.00,ACK
943,5105442600.00,Data read: FF
944,5105442600.00,PEC OK: FF
945,5105463600.00,NACK
946,5105474720.00,Stop
947,5136975760.00,Start
948,5136979440.00,Address write: 5A
949,5137000440.00,ACK
950,5137009840.00,Command: 51
951,5137030840.00,ACK
952,5137036840.00,Data write: CD
953,5137057840.00,ACK
954,5137063800.00,Data write: 87
955,5137084800.00,ACK
956,5137092160.00,Start repeat
957,5137192240.00,Address read: 5A
958,5137213240.00,ACK
959,5137375920.00,Data read: 32
960,5137396920.00,ACK
961,5137417200.00,Data read: 81
962,5137438200.00,ACK
963,5137447480.00,Data read: C3
964,5137447480.00,PEC OK: C3
965,5137468480.00,NACK
966,5137479640.00,Stop
967,5168969280.00,Start
968,5168972920.00,Address write: 5A
969,5168993920.00,ACK
970,5169003320.00,Command: 60
971,5169024320.00,ACK
972,5169030280.00,Data write: 08
973,5169051280.00,ACK
974,5169057280.00,Data write: 01
975,5169078280.00,ACK
976,5169084320.00,Data write: 02
977,5169105320.00,ACK
978,5169111400.00,Data write: 03
979,5169132400.00,ACK
980,5169138400.00,Data write: 04
981,5169159360.00,ACK
982,5169165360.00,Data write: 05
983,5169186360.00,ACK
984,5169192360.00,Data write: 06
985,5169213360.00,ACK
986,5169219360.00,Data write: 07
987,5169240320.00,ACK
988,5169246320.00,Data write: 08
989,5169267320.00,ACK
990,5169274680.00,Start repeat
991,5169379600.00,Address read: 5A
992,5169400560.00,ACK
993,5169657040.00,Data read: 08
994,5169678040.00,ACK
995,5169715400.00,Data read: 02
996,5169736360.00,ACK
997,5169745640.00,Data read: 03
998,5169766640.00,ACK
999,5169775880.00,Data read: 04
1000,5169796880.00,ACK
1001,5169806160.00,Data read: 05
1002,5169827120.00,ACK
1003,5169836400.00,Data read: 06
1004,5169857400.00,ACK
1005,5169866640.00,Data read: 07
1006,5169887640.00,ACK
1007,5169896920.00,Data read: 08
1008,5169917920.00,ACK
1009,5169927160.00,Data read: 01
1010,5169948160.00,ACK
1011,5169957440.00,Data read: EC
1012,5169957440.00,PEC OK: EC
1013,5169978440.00,NACK
1014,5169989560.00,Stop
1015,5202979040.00,Start
1016,5202982680.00,Address write: 5A
1017,5203003680.00,ACK
1018,5203013040.00,Command: 61
1019,5203034040.00,ACK
1020,5203040040.00,Data write: 10
1021,5203061040.00,ACK
1022,5203067040.00,Data write: 11
1023,5203088040.00,ACK
1024,5203094080.00,Data write: 12
1025,5203115080.00,ACK
1026,5203121080.00,Data write: 13
1027,5203142080.00,ACK
1028,5203148080.00,Data write: 14
1029,5203169080.00,ACK
1030,5203175080.00,Data write: 15
1031,5203196080.00,ACK
1032,5203202080.00,Data write: 16
1033,5203223040.00,ACK
1034,5203229040.00,Data write: 17
1035,5203250040.00,ACK
1036,5203256040.00,Data write: 18
1037,5203277040.00,ACK
1038,5203283040.00,Data write: 19
1039,5203304000.00,ACK
1040,5203310000.00,Data write: 1A
1041,5203331000.00,ACK
1042,5203337000.00,Data write: 1B
1043,5203358000.00,ACK
1044,5203363960.00,Data write: 1C
1045,5203384960.00,ACK
1046,5203390960.00,Data write: 1D
1047,5203411960.00,ACK
1048,5203417960.00,Data write: 1E
1049,5203438920.00,ACK
1050,5203444920.00,Data write: 1F
1051,5203465880.00,ACK
1052,5203471880.00,Data write: 89
1053,5203492880.00,ACK
1054,5203520200.00,Start repeat
1055,5203629000.00,Address read: 5A
1056,5203650000.00,ACK
1057,5204008520.00,Data read: 10
1058,5204029520.00,ACK
1059,5204076920.00,Data read: 89
1060,5204097920.00,ACK
1061,5204107200.00,Data read: 1F
1062,5204128160.00,ACK
1063,5204137440.00,Data read: 1E
1064,5204158400.00,ACK
1065,5204167680.00,Data read: 1D
1066,5204188680.00,ACK
1067,5204197920.00,Data read: 1C
1068,5204218920.00,ACK
1069,5204228200.00,Data read: 1B
1070,5204249200.00,ACK
1071,5204258440.00,Data read: 1A
1072,5204279440.00,ACK
1073,5204288680.00,Data read: 19
1074,5204309720.00,ACK
1075,5204318960.00,Data read: 18
1076,5204339960.00,ACK
1077,5204349200.00,Data read: 17
1078,5204370200.00,ACK
1079,5204379480.00,Data read: 16
1080,5204400480.00,ACK
1081,5204409720.00,Data read: 15
1082,5204430720.00,ACK
1083,5204440000.00,Data read: 14
1084,5204461000.00,ACK
1085,5204470240.00,Data read: 13
1086,5204491240.00,ACK
1087,5204520840.00,Data read: 12
1088,5204541840.00,ACK
1089,5204551080.00,Data read: 81
1090,5204572080.00,ACK
1091,5204581320.00,Data read: 7B
1092,5204581320.00,PEC OK: 7B
1093,5204602320.00,NACK
1094,5204613480.00,Stop
1095,5233973320.00,Start
1096,5233977000.00,Address write: 5A
1097,5233998000.00,ACK
1098,5234007400.00,Command: 12
1099,5234028400.00,ACK
1100,5234034400.00,Data write: 65
1101,5234034400.00,PEC OK: 65
1102,5234055400.00,ACK
1103,5234062880.00,Stop
1104,5264975160.00,Start
1105,5264979000.00,Address read: 5A
1106,5265000000.00,ACK
1107,5265033280.00,Data read: 0A
1108,5265054280.00,ACK
1109,5265070960.00,Data read: 38
1110,5265070960.00,PEC OK: 38
1111,5265091960.00,NACK
1112,5265103120.00,Stop
1113,5297970200.00,Start
1114,5297973880.00,Address write: 5A
1115,5297994880.00,ACK
1116,5298004240.00,Command: 20
1117,5298025240.00,ACK
1118,5298031280.00,Data write: 4A
1119,5298052280.00,ACK
1120,5298058280.00,Data write: E1
1121,5298079280.00,ACK
1122,5298086760.00,Stop
1123,5327977520.00,Start
1124,5327981200.00,Address write: 5A
1125,5328002200.00,ACK
1126,5328011560.00,Command: 12
1127,5328032560.00,ACK
1128,5328038560.00,Data write: 65
1129,5328038560.00,PEC OK: 65
1130,5328059560.00,ACK
1131,5328067040.00,Stop
1132,5359979520.00,Start
1133,5359983320.00,Address read: 5A
1134,5360004320.00,ACK
1135,5360037600.00,Data read: 0B
1136,5360058600.00,ACK
1137,5360075520.00,Data read: 3F
1138,5360075520.00,PEC OK: 3F
1139,5360096480.00,NACK
1140,5360107640.00,Stop
1141,5938977640.00,Start
1142,5938981640.00,Address write: 5A
1143,5939002640.00,ACK
1144,5939013480.00,Stop
1145,5961342360.00,Start
1146,5961798760.00,Address read: 5A
1147,5965530840.00,ACK
1148,5993989160.00,Start repeat
1149,5994000600.00,Address write: 5A
1150,5994021600.00,NACK
1151,5994027000.00,Stop
1152,6020983760.00,Start
1153,6020987440.00,Address write: 5A
1154,6021008400.00,ACK
1155,6021017800.00,Command: 10
1156,6021038800.00,ACK
1157,6021044800.00,Data write: 6B
1158,6021044800.00,PEC OK: 6B
1159,6021065800.00,ACK
1160,6021073280.00,Stop
1161,6040977160.00,Start
1162,6040980840.00,Address write: 5A
1163,6041001840.00,ACK
1164,6041011240.00,Command: 11
1165,6041032240.00,ACK
1166,6041038240.00,Data write: 6C
1167,6041038240.00,PEC OK: 6C
1168,6041059200.00,ACK
1169,6041066680.00,Stop
1170,6071981520.00,Start
1171,6071985200.00,Address write: 5A
1172,6072006200.00,ACK
1173,6072015600.00,Command: 12
1174,6072036600.00,ACK
1175,6072042600.00,Data write: 65
1176,6072042600.00,PEC OK: 65
1177,6072063600.00,ACK
1178,6072071080.00,Stop
1179,6090983280.00,Start
1180,6090987120.00,Address read: 5A
1181,6091008120.00,ACK
1182,6091041360.00,Data read: 0D
1183,6091062360.00,ACK
1184,6091079080.00,Data read: 2D
1185,6091079080.00,PEC OK: 2D
1186,6091100040.00,NACK
1187,6091111200.00,Stop
1188,6120984280.00,Start
1189,6120987960.00,Address write: 5A
1190,6121008960.00,ACK
1191,6121018320.00,Command: 13
1192,6121039320.00,ACK
1193,6121045320.00,Data write: 62
1194,6121045320.00,PEC OK: 62
1195,6121066320.00,ACK
1196,6121073800.00,Stop
1197,6152977800.00,Start
1198,6152981640.00,Address read: 5A
1199,6153002600.00,ACK
1200,6153035920.00,Data read: 82
1201,6153056880.00,ACK
1202,6153073800.00,Data read: 89
1203,6153073800.00,PEC OK: 89
1204,6153094800.00,NACK
1205,6153105920.00,Stop
1206,6181983600.00,Start
1207,6181987280.00,Address write: 5A
1208,6182008280.00,ACK
1209,6182017680.00,Command: 12
1210,6182038680.00,ACK
1211,6182044680.00,Data write: 65
1212,6182044680.00,PEC OK: 65
1213,6182065680.00,ACK
1214,6182073160.00,Stop
1215,6201976120.00,Start
1216,6201979920.00,Address read: 5A
1217,6202000920.00,ACK
1218,6202034200.00,Data read: 0E
1219,6202055200.00,ACK
1220,6202071880.00,Data read: 24
1221,6202071880.00,PEC OK: 24
1222,6202092880.00,NACK
1223,6202104040.00,Stop
1224,6229978640.00,Start
1225,6229982320.00,Address write: 5A
1226,6230003320.00,ACK
1227,6230012720.00,Command: 20
1228,6230033720.00,ACK
1229,6230039720.00,Data write: 00
1230,6230060720.00,ACK
1231,6230066880.00,Data write: EF
1232,6230066880.00,PEC OK: EF
1233,6230087840.00,ACK
1234,6230095320.00,Stop
1235,6247982360.00,Start
1236,6247986040.00,Address write: 5A
1237,6248007040.00,ACK
1238,6248016440.00,Command: 21
1239,6248037440.00,ACK
1240,6248043440.00,Data write: 81
1241,6248064440.00,ACK
1242,6248070440.00,Data write: 74
1243,6248070440.00,PEC OK: 74
1244,6248091440.00,ACK
1245,6248098920.00,Stop
1246,6280986960.00,Start
1247,6280990600.00,Address write: 5A
1248,6281011600.00,ACK
1249,6281021000.00,Command: 22
1250,6281042000.00,ACK
1251,6281049360.00,Start repeat
1252,6281081160.00,Address read: 5A
1253,6281102160.00,ACK
1254,6281188800.00,Data read: 02
1255,6281209800.00,ACK
1256,6281231800.00,Data read: 55
1257,6281231800.00,PEC OK: 55
1258,6281252800.00,NACK
1259,6281263920.00,Stop
1260,6312982560.00,Start
1261,6312986240.00,Address write: 5A
1262,6313007240.00,ACK
1263,6313016600.00,Command: 23
1264,6313037600.00,ACK
1265,6313045280.00,Start repeat
1266,6313079080.00,Address read: 5A
1267,6313100080.00,ACK
1268,6313189600.00,Data read: 82
1269,6313210640.00,ACK
1270,6313234560.00,PEC OK: B7
1271,6313234560.00,Data read: B7
1272,6313255560.00,NACK
1273,6313266680.00,Stop
1274,6343983240.00,Start
1275,6343986920.00,Address write: 5A
1276,6344007960.00,ACK
1277,6344017320.00,Command: 30
1278,6344038320.00,ACK
1279,6344070200.00,Data write: 34
1280,6344091200.00,ACK
1281,6344097200.00,Data write: 02
1282,6344118200.00,ACK
1283,6344124200.00,Data write: 82
1284,6344124200.00,PEC OK: 82
1285,6344145200.00,ACK
1286,6344152680.00,Stop
1287,6374977880.00,Start
1288,6374981560.00,Address write: 5A
1289,6375002560.00,ACK
1290,6375011920.00,Command: 31
1291,6375032920.00,ACK
1292,6375038920.00,Data write: CD
1293,6375059920.00,ACK
1294,6375065920.00,Data write: 83
1295,6375086920.00,ACK
1296,6375092920.00,Data write: CE
1297,6375092920.00,PEC OK: CE
1298,6375113880.00,ACK
1299,6375121360.00,Stop
1300,6406987360.00,Start
1301,6406991040.00,Address write: 5A
1302,6407012040.00,ACK
1303,6407021400.00,Command: 32
1304,6407042400.00,ACK
1305,6407049800.00,Start repeat
1306,6407089640.00,Address read: 5A
1307,6407110640.00,ACK
1308,6407214640.00,Data read: 32
1309,6407235640.00,ACK
1310,6407254120.00,Data read: 02
1311,6407275120.00,ACK
1312,6407284360.00,Data read: 3C
1313,6407284360.00,PEC OK: 3C
1314,6407305360.00,NACK
1315,6407316520.00,Stop
1316,6438983520.00,Start
1317,6438987160.00,Address write: 5A
1318,6439008160.00,ACK
1319,6439017560.00,Command: 33
1320,6439038560.00,ACK
1321,6439045880.00,Start repeat
1322,6439087680.00,Address read: 5A
1323,6439108680.00,ACK
1324,6439215520.00,Data read: 33
1325,6439236520.00,ACK
1326,6439255040.00,Data read: 82
1327,6439276040.00,ACK
1328,6439285320.00,Data read: B6
1329,6439285320.00,PEC OK: B6
1330,6439306280.00,NACK
1331,6439317440.00,Stop
1332,6467982920.00,Start
1333,6467986600.00,Address write: 5A
1334,6468007600.00,ACK
1335,6468017000.00,Command: 40
1336,6468038000.00,ACK
1337,6468044000.00,Data write: 08
1338,6468064960.00,ACK
1339,6468070960.00,Data write: 10
1340,6468092000.00,ACK
1341,6468098000.00,Data write: 11
1342,6468119000.00,ACK
1343,6468125000.00,Data write: 12
1344,6468145960.00,ACK
1345,6468151960.00,Data write: 13
1346,6468172960.00,ACK
1347,6468178960.00,Data write: 14
1348,6468200000.00,ACK
1349,6468206000.00,Data write: 15
1350,6468227000.00,ACK
1351,6468233000.00,Data write: 16
1352,6468254000.00,ACK
1353,6468260080.00,Data write: 04
1354,6468281080.00,ACK
1355,6468287080.00,Data write: 43
1356,6468287080.00,PEC OK: 43
1357,6468308080.00,ACK
1358,6468315560.00,Stop
1359,6500987520.00,Start
1360,6500991200.00,Address write: 5A
1361,6501012240.00,ACK
1362,6501021600.00,Command: 41
1363,6501042600.00,ACK
1364,6501048600.00,Data write: 10
1365,6501069600.00,ACK
1366,6501075600.00,Data write: 20
1367,6501096560.00,ACK
1368,6501102560.00,Data write: 21
1369,6501123560.00,ACK
1370,6501129560.00,Data write: 22
1371,6501150560.00,ACK
1372,6501156520.00,Data write: 23
1373,6501177520.00,ACK
1374,6501183520.00,Data write: 24
1375,6501204520.00,ACK
1376,6501210520.00,Data write: 25
1377,6501231520.00,ACK
1378,6501237520.00,Data write: 26
1379,6501258520.00,ACK
1380,6501264520.00,Data write: 27
1381,6501285520.00,ACK
1382,6501291520.00,Data write: 28
1383,6501312520.00,ACK
1384,6501318520.00,Data write: 29
1385,6501339520.00,ACK
1386,6501345520.00,Data write: 2A
1387,6501366480.00,ACK
1388,6501372480.00,Data write: 2B
1389,6501393480.00,ACK
1390,6501399480.00,Data write: 2C
1391,6501420480.00,ACK
1392,6501426480.00,Data write: 2D
1393,6501447440.00,ACK
1394,6501453440.00,Data write: 2E
1395,6501474400.00,ACK
1396,6501480400.00,Data write: 85
1397,6501501400.00,ACK
1398,6501507400.00,Data write: 6D
1399,6501507400.00,PEC OK: 6D
1400,6501528400.00,ACK
1401,6501535880.00,Stop
1402,6532978600.00,Start
1403,6532982440.00,Address write: 5A
1404,6533003440.00,ACK
1405,6533012840.00,Command: 42
1406,6533033800.00,ACK
1407,6533041160.00,Start repeat
1408,6533089080.00,Address read: 5A
1409,6533110080.00,ACK
1410,6533269760.00,Data read: 08
1411,6533290760.00,ACK
1412,6533315680.00,Data read: 10
1413,6533336680.00,ACK
1414,6533345920.00,Data read: 11
1415,6533366920.00,ACK
1416,6533376160.00,Data read: 12
1417,6533397160.00,ACK
1418,6533406440.00,Data read: 13
1419,6533427400.00,ACK
1420,6533436680.00,Data read: 14
1421,6533457680.00,ACK
1422,6533466920.00,Data read: 15
1423,6533487920.00,ACK
1424,6533497200.00,Data read: 16
1425,6533518160.00,ACK
1426,6533527440.00,Data read: 02
1427,6533548440.00,ACK
1428,6533557720.00,Data read: A2
1429,6533557720.00,PEC OK: A2
1430,6533578720.00,NACK
1431,6533589840.00,Stop
1432,6565979440.00,Start
1433,6565983280.00,Address write: 5A
1434,6566004280.00,ACK
1435,6566013680.00,Command: 43
1436,6566034680.00,ACK
1437,6566042040.00,Start repeat
1438,6566091880.00,Address read: 5A
1439,6566112880.00,ACK
1440,6566321760.00,Data read: 10
1441,6566342760.00,ACK
1442,6566375000.00,Data read: 20
1443,6566396000.00,ACK
1444,6566405240.00,Data read: 21
1445,6566426240.00,ACK
1446,6566435520.00,Data read: 22
1447,6566456520.00,ACK
1448,6566469400.00,Data read: 23
1449,6566490400.00,ACK
1450,6566499680.00,Data read: 24
1451,6566520680.00,ACK
1452,6566529920.00,Data read: 25
1453,6566550920.00,ACK
1454,6566560160.00,Data read: 26
1455,6566581160.00,ACK
1456,6566600720.00,Data read: 27
1457,6566621680.00,ACK
1458,6566630960.00,Data read: 28
1459,6566651960.00,ACK
1460,6566661240.00,Data read: 29
1461,6566682200.00,ACK
1462,6566691480.00,Data read: 2A
1463,6566712480.00,ACK
1464,6566721720.00,Data read: 2B
1465,6566742720.00,ACK
1466,6566751960.00,Data read: 2C
1467,6566772960.00,ACK
1468,6566782240.00,Data read: 2D
1469,6566803240.00,ACK
1470,6566812480.00,Data read: 2E
1471,6566833480.00,ACK
1472,6566842760.00,Data read: 82
1473,6566863760.00,ACK
1474,6566873000.00,Data read: 8B
1475,6566873000.00,PEC OK: 8B
1476,6566894000.00,NACK
1477,6566905120.00,Stop
1478,6595982720.00,Start
1479,6595986400.00,Address write: 5A
1480,6596007400.00,ACK
1481,6596016800.00,Command: 12
1482,6596037800.00,ACK
1483,6596043800.00,PEC OK: 65
1484,6596043800.00,Data write: 65
1485,6596064800.00,ACK
1486,6596072280.00,Stop
1487,6625987120.00,Start
1488,6625990920.00,Address read: 5A
1489,6626011920.00,ACK
1490,6626045200.00,Data read: 0F
1491,6626066200.00,ACK
1492,6626082920.00,Data read: 23
1493,6626082920.00,PEC OK: 23
1494,6626103880.00,NACK
1495,6626115040.00,Stop
1496,6656981760.00,Start
1497,6656985400.00,Address write: 5A
1498,6657006400.00,ACK
1499,6657015800.00,Command: 50
1500,6657036800.00,ACK
1501,6657042800.00,Data write: 34
1502,6657063800.00,ACK
1503,6657069800.00,Data write: 06
1504,6657090800.00,ACK
1505,6657098160.00,Start repeat
1506,6657194360.00,Address read: 5A
1507,6657215360.00,ACK
1508,6657374280.00,Data read: 45
1509,6657395240.00,ACK
1510,6657422000.00,Data read: 02
1511,6657443000.00,ACK
1512,6657452240.00,Data read: F6
1513,6657452240.00,PEC OK: F6
1514,6657473240.00,NACK
1515,6657484360.00,Stop
1516,6691986600.00,Start
1517,6691990280.00,Address write: 5A
1518,6692011280.00,ACK
1519,6692020640.00,Command: 51
1520,6692041640.00,ACK
1521,6692047640.00,Data write: CD
1522,6692068640.00,ACK
1523,6692074640.00,Data write: 87
1524,6692095640.00,ACK
1525,6692103000.00,Start repeat
1526,6692203080.00,Address read: 5A
1527,6692224040.00,ACK
1528,6692386760.00,Data read: 32
1529,6692407760.00,ACK
1530,6692434440.00,Data read: 82
1531,6692455440.00,ACK
1532,6692464680.00,Data read: CA
1533,6692464680.00,PEC OK: CA
1534,6692485720.00,NACK
1535,6692496840.00,Stop
1536,6723984160.00,Start
1537,6723987800.00,Address write: 5A
1538,6724008800.00,ACK
1539,6724018480.00,Command: 60
1540,6724039480.00,ACK
1541,6724045480.00,Data write: 08
1542,6724066480.00,ACK
1543,6724072480.00,Data write: 01
1544,6724093440.00,ACK
1545,6724099440.00,Data write: 02
1546,6724120400.00,ACK
1547,6724126400.00,Data write: 03
1548,6724147400.00,ACK
1549,6724153400.00,Data write: 04
1550,6724174400.00,ACK
1551,6724180400.00,Data write: 05
1552,6724201400.00,ACK
1553,6724207400.00,Data write: 06
1554,6724228400.00,ACK
1555,6724234440.00,Data write: 07
1556,6724255400.00,ACK
1557,6724267720.00,Data write: 08
1558,6724288680.00,ACK
1559,6724296040.00,Start repeat
1560,6724400960.00,Address read: 5A
1561,6724421960.00,ACK
1562,6724678440.00,Data read: 08
1563,6724699440.00,ACK
1564,6724732400.00,Data read: 02
1565,6724753360.00,ACK
1566,6724762640.00,Data read: 03
1567,6724783600.00,ACK
1568,6724792880.00,Data read: 04
1569,6724813840.00,ACK
1570,6724823120.00,Data read: 05
1571,6724844120.00,ACK
1572,6724853400.00,Data read: 06
1573,6724874400.00,ACK
1574,6724883640.00,Data read: 07
1575,6724904640.00,ACK
1576,6724913920.00,Data read: 08
1577,6724934880.00,ACK
1578,6724944160.00,Data read: 02
1579,6724965160.00,ACK
1580,6724974400.00,PEC OK: E5
1581,6724974400.00,Data read: E5
1582,6724995360.00,NACK
1583,6725006520.00,Stop
1584,6755986480.00,Start
1585,6755990120.00,Address write: 5A
1586,6756011120.00,ACK
1587,6756020520.00,Command: 61
1588,6756041520.00,ACK
1589,6756047480.00,Data write: 10
1590,6756068480.00,ACK
1591,6756074480.00,Data write: 11
1592,6756095480.00,ACK
1593,6756101480.00,Data write: 12
1594,6756122440.00,ACK
1595,6756128440.00,Data write: 13
1596,6756149440.00,ACK
1597,6756155440.00,Data write: 14
1598,6756176400.00,ACK
1599,6756201480.00,Data write: 15
1600,6756222480.00,ACK
1601,6756228480.00,Data write: 16
1602,6756249440.00,ACK
1603,6756255440.00,Data write: 17
1604,6756276400.00,ACK
1605,6756282400.00,Data write: 18
1606,6756303400.00,ACK
1607,6756309400.00,Data write: 19
1608,6756330400.00,ACK
1609,6756336480.00,Data write: 1A
1610,6756357480.00,ACK
1611,6756363480.00,Data write: 1B
1612,6756384480.00,ACK
1613,6756390480.00,Data write: 1C
1614,6756411480.00,ACK
1615,6756417480.00,Data write: 1D
1616,6756438480.00,ACK
1617,6756444480.00,Data write: 1E
1618,6756465480.00,ACK
1619,6756471480.00,Data write: 1F
1620,6756492480.00,ACK
1621,6756498480.00,Data write: 89
1622,6756519480.00,ACK
1623,6756526800.00,Start repeat
1624,6756635640.00,Address read: 5A
1625,6756656600.00,ACK
1626,6757015120.00,Data read: 10
1627,6757036080.00,ACK
1628,6757083520.00,Data read: 89
1629,6757104520.00,ACK
1630,6757113760.00,Data read: 1F
1631,6757134760.00,ACK
1632,6757144040.00,Data read: 1E
1633,6757165040.00,ACK
1634,6757174320.00,Data read: 1D
1635,6757195320.00,ACK
1636,6757209800.00,Data read: 1C
1637,6757230800.00,ACK
1638,6757240080.00,Data read: 1B
1639,6757261040.00,ACK
1640,6757270280.00,Data read: 1A
1641,6757291280.00,ACK
1642,6757300560.00,Data read: 19
1643,6757321560.00,ACK
1644,6757330800.00,Data read: 18
1645,6757351800.00,ACK
1646,6757361080.00,Data read: 17
1647,6757382040.00,ACK
1648,6757391320.00,Data read: 16
1649,6757412320.00,ACK
1650,6757421600.00,Data read: 15
1651,6757442560.00,ACK
1652,6757451840.00,Data read: 14
1653,6757472840.00,ACK
1654,6757482080.00,Data read: 13
1655,6757503120.00,ACK
1656,6757512360.00,Data read: 12
1657,6757533360.00,ACK
1658,6757542600.00,Data read: 82
1659,6757563600.00,ACK
1660,6757572880.00,PEC OK: 72
1661,6757572880.00,Data read: 72
1662,6757593880.00,NACK
1663,6757605000.00,Stop
1664,6786985920.00,Start
1665,6786989600.00,Address write: 5A
1666,6787010640.00,ACK
1667,6787020000.00,Command: 12
1668,6787040960.00,ACK
1669,6787047000.00,Data write: 65
1670,6787047000.00,PEC OK: 65
1671,6787068000.00,ACK
1672,6787075480.00,Stop
1673,6816983880.00,Start
1674,6816987720.00,Address read: 5A
1675,6817008720.00,ACK
1676,6817042000.00,Data read: 10
1677,6817063000.00,ACK
1678,6817084080.00,Data read: 7E
1679,6817084080.00,PEC OK: 7E
1680,6817105080.00,NACK
1681,6817116200.00,Stop
1682,6848986120.00,Start
1683,6848989800.00,Address write: 5A
1684,6849010800.00,ACK
1685,6849020200.00,Command: 20
1686,6849041160.00,ACK
1687,6849047160.00,Data write: 4A
1688,6849068160.00,ACK
1689,6849074160.00,Data write: E1
1690,6849095160.00,ACK
1691,6849102600.00,Stop
1692,6881991160.00,Start
1693,6881994840.00,Address write: 5A
1694,6882015840.00,ACK
1695,6882025240.00,Command: 12
1696,6882046240.00,ACK
1697,6882052240.00,Data write: 65
1698,6882052240.00,PEC OK: 65
1699,6882073240.00,ACK
1700,6882080720.00,Stop
1701,6911980440.00,Start
1702,6911984240.00,Address read: 5A
1703,6912005240.00,ACK
1704,6912038560.00,Data read: 11
1705,6912059520.00,ACK
1706,6912076440.00,Data read: 79
1707,6912076440.00,PEC OK: 79
1708,6912097440.00,NACK
1709,6912108600.00,Stop
