Id,Time[ns],0:PMBus: Address/Data
1,3277796280.00,Start
2,3277799880.00,Address write: 5A
3,3277820840.00,ACK
4,3277833120.00,Command: PMBUS_REVISION (98)
5,3277854040.00,ACK
6,3277864840.00,Start repeat
7,3278257120.00,Address read: 5A
8,3278278040.00,ACK
9,3278637520.00,Data read: 33
10,3278658520.00,ACK
11,3278670440.00,Data read: AF
12,3278670440.00,PEC OK: AF
13,3278691440.00,NACK
14,3278704800.00,Stop
15,3340793720.00,Start
16,3340797560.00,Address write: 5A
17,3340818480.00,ACK
18,3340830760.00,Command: MFR_ID (99)
19,3340851680.00,ACK
20,3340862520.00,Start repeat
21,3341257840.00,Address read: 5A
22,3341278800.00,ACK
23,3341697560.00,Data read: 0A
24,3341718560.00,ACK
25,3341730520.00,Data read: 4D
26,3341751480.00,ACK
27,3341763400.00,Data read: 46
28,3341784400.00,ACK
29,3341796320.00,Data read: 52
30,3341817320.00,ACK
31,3341829240.00,Data read: 5F
32,3341850240.00,ACK
33,3341862160.00,Data read: 49
34,3341883160.00,ACK
35,3341895080.00,Data read: 44
36,3341916080.00,ACK
37,3341928000.00,Data read: 5F
38,3341949040.00,ACK
39,3341960960.00,Data read: 30
40,3341981920.00,ACK
41,3341993880.00,Data read: 30
42,3342014840.00,ACK
43,3342026760.00,Data read: 31
44,3342047760.00,ACK
45,3342059720.00,Data read: 0B
46,3342059720.00,PEC OK: 0B
47,3342080680.00,NACK
48,3342094120.00,Stop
49,3404791240.00,Start
50,3404795080.00,Address write: 5A
51,3404816000.00,ACK
52,3404828320.00,Command: MFR_MODEL (9A)
53,3404849240.00,ACK
54,3404860040.00,Start repeat
55,3405258320.00,Address read: 5A
56,3405279240.00,ACK
57,3405716800.00,Data read: 0D
58,3405737760.00,ACK
59,3405749680.00,Data read: 4D
60,3405770680.00,ACK
61,3405782600.00,Data read: 46
62,3405803600.00,ACK
63,3405815560.00,Data read: 52
64,3405836520.00,ACK
65,3405848480.00,Data read: 5F
66,3405869480.00,ACK
67,3405881400.00,Data read: 4D
68,3405902400.00,ACK
69,3405914320.00,Data read: 4F
70,3405935320.00,ACK
71,3405947240.00,Data read: 44
72,3405968240.00,ACK
73,3405980160.00,Data read: 45
74,3406001200.00,ACK
75,3406022760.00,Data read: 4C
76,3406043760.00,ACK
77,3406055720.00,Data read: 5F
78,3406076680.00,ACK
79,3406088600.00,Data read: 30
80,3406109640.00,ACK
81,3406121560.00,Data read: 30
82,3406142560.00,ACK
83,3406154440.00,Data read: 31
84,3406175480.00,ACK
85,3406187400.00,Data read: 06
86,3406187400.00,PEC OK: 06
87,3406208400.00,NACK
88,3406221800.00,Stop
89,4689800760.00,Start
90,4689804480.00,Address write: 5A
91,4689825440.00,ACK
92,4689837720.00,Command: CLEAR_FAULTS (03)
93,4689858640.00,ACK
94,4689868120.00,Data write: 12
95,4689868120.00,PEC OK: 12
96,4689889000.00,ACK
97,4689899960.00,Stop
98,4736799720.00,Start
99,4736803360.00,Address write: 5A
100,4736824280.00,ACK
101,4736836600.00,Command: PMBUS_REVISION (98)
102,4736857480.00,ACK
103,4736868320.00,Start repeat
104,4737260600.00,Address read: 5A
105,4737281520.00,ACK
106,4737636640.00,Data read: 33
107,4737657640.00,ACK
108,4737673960.00,Data read: AF
109,4737673960.00,PEC OK: AF
110,4737694960.00,NACK
111,4737708360.00,Stop
112,4783807720.00,Start
113,4783811320.00,Address write: 5A
114,4783832280.00,ACK
115,4783844520.00,Command: PMBUS_REVISION (98)
116,4783865480.00,ACK
117,4783876280.00,Start repeat
118,4784268760.00,Address read: 5A
119,4784289720.00,ACK
120,4784654360.00,Data read: 33
121,4784675360.00,ACK
122,4784687280.00,PEC OK: AF
123,4784687280.00,Data read: AF
124,4784708280.00,NACK
125,4784721680.00,Stop
126,4831803400.00,Start
127,4831807000.00,Address write: 5A
128,4831827920.00,ACK
129,4831840240.00,Command: PAGE (00)
130,4831861080.00,ACK
131,4831871880.00,Start repeat
132,4831898920.00,Address read: 5A
133,4831919880.00,ACK
134,4832031680.00,Data read: 00
135,4832052680.00,ACK
136,4832064600.00,Data read: CE
137,4832064600.00,PEC OK: CE
138,4832085600.00,NACK
139,4832099000.00,Stop
140,4847801800.00,Start
141,4847805520.00,Address write: 5A
142,4847826440.00,ACK
143,4847838760.00,Command: PAGE (00)
144,4847859640.00,ACK
145,4847869080.00,Data write: 00
146,4847890000.00,ACK
147,4847899440.00,PEC OK: 41
148,4847899440.00,Data write: 41
149,4847920360.00,ACK
150,4847931320.00,Stop
151,4878806800.00,Start
152,4878810440.00,Address write: 5A
153,4878831360.00,ACK
154,4878843640.00,Command: PAGE (00)
155,4878864480.00,ACK
156,4878875280.00,Start repeat
157,4878902320.00,Address read: 5A
158,4878923280.00,ACK
159,4879035120.00,Data read: 00
160,4879056120.00,ACK
161,4879068040.00,Data read: CE
162,4879068040.00,PEC OK: CE
163,4879089040.00,NACK
164,4879125760.00,Stop
165,4926803320.00,Start
166,4926806920.00,Address write: 5A
167,4926827840.00,ACK
168,4926840160.00,Command: OPERATION (01)
169,4926861040.00,ACK
170,4926871880.00,Start repeat
171,4926901880.00,Address read: 5A
172,4926922840.00,ACK
173,4927036720.00,Data read: 80
174,4927057720.00,ACK
175,4927074040.00,Data read: 2C
176,4927074040.00,PEC OK: 2C
177,4927095040.00,NACK
178,4927108440.00,Stop
179,4942807000.00,Start
180,4942810720.00,Address write: 5A
181,4942831640.00,ACK
182,4942843960.00,Command: OPERATION (01)
183,4942864840.00,ACK
184,4942874320.00,Data write: 80
185,4942895200.00,ACK
186,4942904640.00,Data write: DD
187,4942904640.00,PEC OK: DD
188,4942925600.00,ACK
189,4942936560.00,Stop
190,4972800800.00,Start
191,4972804400.00,Address write: 5A
192,4972825320.00,ACK
193,4972837640.00,Command: OPERATION (01)
194,4972858520.00,ACK
195,4972869320.00,Start repeat
196,4972899360.00,Address read: 5A
197,4972920280.00,ACK
198,4973044080.00,Data read: 80
199,4973065120.00,ACK
200,4973077040.00,Data read: 2C
201,4973077040.00,PEC OK: 2C
202,4973098040.00,NACK
203,4973111440.00,Stop
204,4988807920.00,Start
205,4988811680.00,Address write: 5A
206,4988832600.00,ACK
207,4988844920.00,Command: OPERATION (01)
208,4988865800.00,ACK
209,4988875280.00,Data write: 80
210,4988896120.00,ACK
211,4988910120.00,Data write: DD
212,4988910120.00,PEC OK: DD
213,4988931040.00,ACK
214,4988942000.00,Stop
215,5019801840.00,Start
216,5019805480.00,Address write: 5A
217,5019826400.00,ACK
218,5019850040.00,Command: OPERATION (01)
219,5019870920.00,ACK
220,5019881760.00,Start repeat
221,5019911760.00,Address read: 5A
222,5019932720.00,ACK
223,5020046800.00,Data read: 80
224,5020067800.00,ACK
225,5020079720.00,Data read: 2C
226,5020079720.00,PEC OK: 2C
227,5020100720.00,NACK
228,5020114160.00,Stop
229,5067800960.00,Start
230,5067804600.00,Address write: 5A
231,5067825480.00,ACK
232,5067837800.00,Command: ON_OFF_CONFIG (02)
233,5067858680.00,ACK
234,5067869480.00,Start repeat
235,5067902520.00,Address read: 5A
236,5067923440.00,ACK
237,5068039280.00,Data read: 1A
238,5068060280.00,ACK
239,5068072200.00,Data read: 5E
240,5068072200.00,PEC OK: 5E
241,5068093160.00,NACK
242,5068106560.00,Stop
243,5084803520.00,Start
244,5084807280.00,Address write: 5A
245,5084828200.00,ACK
246,5084840520.00,Command: ON_OFF_CONFIG (02)
247,5084861400.00,ACK
248,5084870880.00,Data write: 1B
249,5084891800.00,ACK
250,5084901280.00,Data write: 2A
251,5084901280.00,PEC OK: 2A
252,5084922200.00,ACK
253,5084933160.00,Stop
254,5114804800.00,Start
255,5114808440.00,Address write: 5A
256,5114829360.00,ACK
257,5114841640.00,Command: ON_OFF_CONFIG (02)
258,5114862520.00,ACK
259,5114873360.00,Start repeat
260,5114906360.00,Address read: 5A
261,5114927320.00,ACK
262,5115043160.00,Data read: 1B
263,5115064160.00,ACK
264,5115076120.00,Data read: 59
265,5115076120.00,PEC OK: 59
266,5115097080.00,NACK
267,5115110480.00,Stop
268,5132807080.00,Start
269,5132810800.00,Address write: 5A
270,5132831720.00,ACK
271,5132844000.00,Command: ON_OFF_CONFIG (02)
272,5132864880.00,ACK
273,5132874360.00,Data write: 1A
274,5132895280.00,ACK
275,5132904760.00,Data write: 2D
276,5132904760.00,PEC OK: 2D
277,5132925720.00,ACK
278,5132936640.00,Stop
279,5163804480.00,Start
280,5163808120.00,Address write: 5A
281,5163829040.00,ACK
282,5163841360.00,Command: ON_OFF_CONFIG (02)
283,5163862200.00,ACK
284,5163873040.00,Start repeat
285,5163906040.00,Address read: 5A
286,5163927000.00,ACK
287,5164042840.00,Data read: 1A
288,5164063840.00,ACK
289,5164075760.00,Data read: 5E
290,5164075760.00,PEC OK: 5E
291,5164096760.00,NACK
292,5164110160.00,Stop
293,5210805400.00,Start
294,5210809040.00,Address write: 5A
295,5210829960.00,ACK
296,5210842240.00,Command: FAN_CONFIG_1_2 (3A)
297,5210863200.00,ACK
298,5210874000.00,Start repeat
299,5211029760.00,Address read: 5A
300,5211050760.00,ACK
301,5211248480.00,Data read: 00
302,5211269480.00,ACK
303,5211281400.00,Data read: A8
304,5211281400.00,PEC OK: A8
305,5211302400.00,NACK
306,5211315760.00,Stop
307,5227798720.00,Start
308,5227802480.00,Address write: 5A
309,5227823400.00,ACK
310,5227835680.00,Command: FAN_CONFIG_1_2 (3A)
311,5227856640.00,ACK
312,5227866120.00,Data write: 01
313,5227886960.00,ACK
314,5227896440.00,Data write: 3D
315,5227896440.00,PEC OK: 3D
316,5227917400.00,ACK
317,5227928360.00,Stop
318,5258809400.00,Start
319,5258813040.00,Address write: 5A
320,5258833960.00,ACK
321,5258846240.00,Command: FAN_CONFIG_1_2 (3A)
322,5258867200.00,ACK
323,5258878000.00,Start repeat
324,5259033760.00,Address read: 5A
325,5259054720.00,ACK
326,5259252440.00,Data read: 01
327,5259273440.00,ACK
328,5259285320.00,Data read: AF
329,5259285320.00,PEC OK: AF
330,5259306320.00,NACK
331,5259319760.00,Stop
332,5274802440.00,Start
333,5274806200.00,Address write: 5A
334,5274827120.00,ACK
335,5274839640.00,Command: FAN_CONFIG_1_2 (3A)
336,5274860560.00,ACK
337,5274870040.00,Data write: 00
338,5274890880.00,ACK
339,5274900360.00,Data write: 3A
340,5274900360.00,PEC OK: 3A
341,5274921320.00,ACK
342,5274932240.00,Stop
343,5305810000.00,Start
344,5305813640.00,Address write: 5A
345,5305834560.00,ACK
346,5305846840.00,Command: FAN_CONFIG_1_2 (3A)
347,5305867800.00,ACK
348,5305878600.00,Start repeat
349,5306034360.00,Address read: 5A
350,5306055280.00,ACK
351,5306253200.00,Data read: 00
352,5306274200.00,ACK
353,5306290520.00,Data read: A8
354,5306290520.00,PEC OK: A8
355,5306311520.00,NACK
356,5306324920.00,Stop
357,5353802120.00,Start
358,5353805720.00,Address write: 5A
359,5353826640.00,ACK
360,5353838960.00,Command: VOUT_MODE (20)
361,5353859800.00,ACK
362,5353870640.00,Start repeat
363,5353960520.00,Address read: 5A
364,5353981440.00,ACK
365,5354135240.00,Data read: 17
366,5354156240.00,ACK
367,5354179560.00,Data read: E8
368,5354179560.00,PEC OK: E8
369,5354200560.00,NACK
370,5354213920.00,Stop
371,5385811560.00,Start
372,5385815160.00,Address write: 5A
373,5385836120.00,ACK
374,5385848400.00,Command: STATUS_BYTE (78)
375,5385869320.00,ACK
376,5385880160.00,Start repeat
377,5386176640.00,Address read: 5A
378,5386197560.00,ACK
379,5386493480.00,Data read: 80
380,5386514520.00,ACK
381,5386526440.00,Data read: 71
382,5386526440.00,PEC OK: 71
383,5386547440.00,NACK
384,5386560800.00,Stop
385,5431805160.00,Start
386,5431808760.00,Address write: 5A
387,5431829720.00,ACK
388,5431842000.00,Command: STATUS_WORD (79)
389,5431862960.00,ACK
390,5431873800.00,Start repeat
391,5432173320.00,Address read: 5A
392,5432194240.00,ACK
393,5432497800.00,Data read: 80
394,5432518800.00,ACK
395,5432530720.00,Data read: 00
396,5432551720.00,ACK
397,5432563640.00,Data read: 46
398,5432563640.00,PEC OK: 46
399,5432584680.00,NACK
400,5432598040.00,Stop
401,5479813040.00,Start
402,5479816640.00,Address write: 5A
403,5479837600.00,ACK
404,5479849880.00,Command: STATUS_VOUT (7A)
405,5479870840.00,ACK
406,5479881680.00,Start repeat
407,5480184080.00,Address read: 5A
408,5480205040.00,ACK
409,5480504960.00,Data read: 00
410,5480525920.00,ACK
411,5480537840.00,Data read: 2E
412,5480537840.00,PEC OK: 2E
413,5480558840.00,NACK
414,5480572280.00,Stop
415,5527810040.00,Start
416,5527813640.00,Address write: 5A
417,5527834600.00,ACK
418,5527846880.00,Command: STATUS_IOUT (7B)
419,5527867840.00,ACK
420,5527878680.00,Start repeat
421,5528184120.00,Address read: 5A
422,5528205040.00,ACK
423,5528502520.00,Data read: 00
424,5528523520.00,ACK
425,5528535440.00,Data read: 45
426,5528535440.00,PEC OK: 45
427,5528556440.00,NACK
428,5528569800.00,Stop
429,5575804440.00,Start
430,5575808040.00,Address write: 5A
431,5575828960.00,ACK
432,5575841280.00,Command: STATUS_INPUT (7C)
433,5575862240.00,ACK
434,5575873080.00,Start repeat
435,5576181480.00,Address read: 5A
436,5576202400.00,ACK
437,5576501920.00,Data read: 00
438,5576522880.00,ACK
439,5576534800.00,Data read: 53
440,5576534800.00,PEC OK: 53
441,5576555800.00,NACK
442,5576569240.00,Stop
443,5623809760.00,Start
444,5623813400.00,Address write: 5A
445,5623834320.00,ACK
446,5623846840.00,Command: STATUS_TEMPERATURE (7D)
447,5623867800.00,ACK
448,5623878640.00,Start repeat
449,5624190080.00,Address read: 5A
450,5624211000.00,ACK
451,5624512480.00,Data read: 00
452,5624533480.00,ACK
453,5624545400.00,Data read: 38
454,5624545400.00,PEC OK: 38
455,5624566400.00,NACK
456,5624579800.00,Stop
457,5671805080.00,Start
458,5671808720.00,Address write: 5A
459,5671829640.00,ACK
460,5671841960.00,Command: STATUS_CML (7E)
461,5671862920.00,ACK
462,5671873720.00,Start repeat
463,5672188160.00,Address read: 5A
464,5672209080.00,ACK
465,5672512800.00,Data read: 00
466,5672533800.00,ACK
467,5672550080.00,Data read: 85
468,5672550080.00,PEC OK: 85
469,5672571080.00,NACK
470,5672584480.00,Stop
471,5719810560.00,Start
472,5719814160.00,Address write: 5A
473,5719835120.00,ACK
474,5719847400.00,Command: STATUS_OTHER (7F)
475,5719868400.00,ACK
476,5719879240.00,Start repeat
477,5720196640.00,Address read: 5A
478,5720217560.00,ACK
479,5720523040.00,Data read: 00
480,5720544000.00,ACK
481,5720562280.00,Data read: EE
482,5720562280.00,PEC OK: EE
483,5720583280.00,NACK
484,5720596680.00,Stop
485,5766811720.00,Start
486,5766815320.00,Address write: 5A
487,5766836240.00,ACK
488,5766848560.00,Command: STATUS_MFR_SPECIFIC (80)
489,5766869400.00,ACK
490,5766880240.00,Start repeat
491,5767200640.00,Address read: 5A
492,5767221560.00,ACK
493,5767529080.00,Data read: 00
494,5767550040.00,ACK
495,5767566360.00,Data read: C5
496,5767566360.00,PEC OK: C5
497,5767587360.00,NACK
498,5767600760.00,Stop
499,5813811920.00,Start
500,5813815560.00,Address write: 5A
501,5813836520.00,ACK
502,5813848800.00,Command: STATUS_FANS_1_2 (81)
503,5813869680.00,ACK
504,5813880520.00,Start repeat
505,5814203920.00,Address read: 5A
506,5814224840.00,ACK
507,5814538920.00,Data read: 00
508,5814559920.00,ACK
509,5814571840.00,Data read: AE
510,5814571840.00,PEC OK: AE
511,5814592840.00,NACK
512,5814606240.00,Stop
513,6669814000.00,Start
514,6669817640.00,Address write: 5A
515,6669838560.00,ACK
516,6669850880.00,Command: PMBUS_REVISION (98)
517,6669871760.00,ACK
518,6669882600.00,Start repeat
519,6670274840.00,Address read: 5A
520,6670295760.00,ACK
521,6670650880.00,Data read: 33
522,6670671880.00,ACK
523,6670688160.00,Data read: AF
524,6670688160.00,PEC OK: AF
525,6670709160.00,NACK
526,6670722520.00,Stop
527,6731815800.00,Start
528,6731819440.00,Address write: 5A
529,6731840360.00,ACK
530,6731852680.00,Command: STATUS_WORD (79)
531,6731873640.00,ACK
532,6731884440.00,Start repeat
533,6732183960.00,Address read: 5A
534,6732204920.00,ACK
535,6732504080.00,Data read: 80
536,6732525080.00,ACK
537,6732541360.00,Data read: 00
538,6732562400.00,ACK
539,6732574320.00,Data read: 46
540,6732574320.00,PEC OK: 46
541,6732595320.00,NACK
542,6732608720.00,Stop
543,6779820200.00,Start
544,6779824040.00,Address write: 5A
545,6779845000.00,ACK
546,6779857280.00,Command: MFR_MODEL (9A)
547,6779878200.00,ACK
548,6779889000.00,Start repeat
549,6780287320.00,Address read: 5A
550,6780308280.00,ACK
551,6780745840.00,Data read: 0D
552,6780766840.00,ACK
553,6780778760.00,Data read: 4D
554,6780799800.00,ACK
555,6780811920.00,Data read: 46
556,6780832920.00,ACK
557,6780844840.00,Data read: 52
558,6780865840.00,ACK
559,6780877760.00,Data read: 5F
560,6780898800.00,ACK
561,6780910720.00,Data read: 4D
562,6780931720.00,ACK
563,6780943640.00,Data read: 4F
564,6780964640.00,ACK
565,6780976560.00,Data read: 44
566,6780997560.00,ACK
567,6781009480.00,Data read: 45
568,6781030480.00,ACK
569,6781042400.00,Data read: 4C
570,6781063400.00,ACK
571,6781075320.00,Data read: 5F
572,6781096320.00,ACK
573,6781108280.00,Data read: 30
574,6781129240.00,ACK
575,6781141160.00,Data read: 30
576,6781162160.00,ACK
577,6781174080.00,Data read: 31
578,6781195080.00,ACK
579,6781207040.00,Data read: 06
580,6781207040.00,PEC OK: 06
581,6781228040.00,NACK
582,6781241440.00,Stop
583,6826822800.00,Start
584,6826826400.00,Address write: 5A
585,6826847360.00,ACK
586,6826859640.00,Command: ON_OFF_CONFIG (02)
587,6826880520.00,ACK
588,6826891320.00,Start repeat
589,6826924360.00,Address read: 5A
590,6826945280.00,ACK
591,6827061120.00,Data read: 1A
592,6827082120.00,ACK
593,6827094040.00,Data read: 5E
594,6827094040.00,PEC OK: 5E
595,6827115040.00,NACK
596,6827128440.00,Stop
597,6859818440.00,Start
598,6859822200.00,Address write: 5A
599,6859843120.00,ACK
600,6859855440.00,Command: CLEAR_FAULTS (03)
601,6859876320.00,ACK
602,6859885800.00,Data write: 12
603,6859885800.00,PEC OK: 12
604,6859906720.00,ACK
605,6859917640.00,Stop
606,6890822360.00,Start
607,6890826120.00,Address write: 5A
608,6890847040.00,ACK
609,6890859360.00,Command: ON_OFF_CONFIG (02)
610,6890880240.00,ACK
611,6890889680.00,Data write: 1A
612,6890910600.00,ACK
613,6890920080.00,Data write: D2
614,6890941000.00,ACK
615,6890951960.00,Stop
616,6953823440.00,Start
617,6953827040.00,Address write: 5A
618,6953848000.00,ACK
619,6953860320.00,Command: STATUS_CML (7E)
620,6953881280.00,ACK
621,6953892120.00,Start repeat
622,6954206520.00,Address read: 5A
623,6954227520.00,ACK
624,6954534560.00,Data read: 20
625,6954555560.00,ACK
626,6954567480.00,Data read: 65
627,6954567480.00,PEC OK: 65
628,6954588480.00,NACK
629,6954601880.00,Stop
630,6985820800.00,Start
631,6985824520.00,Address write: 5A
632,6985845480.00,ACK
633,6985857800.00,Command: CLEAR_FAULTS (03)
634,6985878720.00,ACK
635,6985892640.00,Data write: 12
636,6985892640.00,PEC OK: 12
637,6985913520.00,ACK
638,6985924480.00,Stop
639,10057840160.00,Start
640,10057843920.00,Address write: 5A
641,10057864840.00,ACK
642,10057877120.00,Command: CLEAR_FAULTS (03)
643,10057898040.00,ACK
644,10057907520.00,Data write: 12
645,10057907520.00,PEC OK: 12
646,10057928400.00,ACK
647,10057939360.00,Stop
648,10088838080.00,Start
649,10088841840.00,Address write: 5A
650,10088862760.00,ACK
651,10088875040.00,Command: 0F
652,10088896000.00,ACK
653,10088905440.00,Data write: 36
654,10088905440.00,PEC OK: 36
655,10088926400.00,ACK
656,10088937320.00,Stop
657,10135841680.00,Start
658,10135845320.00,Address write: 5A
659,10135866240.00,ACK
660,10137802120.00,Command: STATUS_CML (7E)
661,10137823120.00,ACK
662,10137840240.00,Start repeat
663,10138154680.00,Address read: 5A
664,10138175640.00,ACK
665,10138478320.00,Data read: 80
666,10138499280.00,ACK
667,10138511200.00,Data read: 0C
668,10138511200.00,PEC OK: 0C
669,10138532200.00,NACK
670,10138545600.00,Stop
671,10168841680.00,Start
672,10168845400.00,Address write: 5A
673,10168866360.00,ACK
674,10168878640.00,Command: CLEAR_FAULTS (03)
675,10168899600.00,ACK
676,10168909080.00,Data write: 12
677,10168909080.00,PEC OK: 12
678,10168930080.00,ACK
679,10168941000.00,Stop
680,10215843680.00,Start
681,10215847400.00,Address write: 5A
682,10215868320.00,ACK
683,10215880600.00,Command: CLEAR_FAULTS (03)
684,10215901520.00,ACK
685,10215911000.00,Data write: 12
686,10215911000.00,PEC OK: 12
687,10215931880.00,ACK
688,10215942840.00,Stop
689,10247843280.00,Start
690,10247847040.00,Address write: 5A
691,10247867960.00,ACK
692,10247880240.00,Command: STATUS_WORD (79)
693,10247901200.00,ACK
694,10247910680.00,Data write: 73
695,10247910680.00,PEC OK: 73
696,10247931600.00,ACK
697,10247942560.00,Stop
698,10294840520.00,Start
699,10294844160.00,Address write: 5A
700,10294865080.00,ACK
701,10296000760.00,Command: STATUS_CML (7E)
702,10296021760.00,ACK
703,10296036920.00,Start repeat
704,10296351360.00,Address read: 5A
705,10296372320.00,ACK
706,10296680000.00,Data read: 40
707,10296701000.00,ACK
708,10296712920.00,Data read: 42
709,10296712920.00,PEC OK: 42
710,10296733920.00,NACK
711,10296747320.00,Stop
712,10327838520.00,Start
713,10327842280.00,Address write: 5A
714,10327863280.00,ACK
715,10327875560.00,Command: CLEAR_FAULTS (03)
716,10327896560.00,ACK
717,10327906000.00,Data write: 12
718,10327906000.00,PEC OK: 12
719,10327926960.00,ACK
720,10327937880.00,Stop
721,10376844160.00,Start
722,10376847920.00,Address write: 5A
723,10376868840.00,ACK
724,10376881160.00,Command: CLEAR_FAULTS (03)
725,10376902040.00,ACK
726,10376911520.00,PEC OK: 12
727,10376911520.00,Data write: 12
728,10376932440.00,ACK
729,10376943360.00,Stop
730,10453849720.00,Start
731,10453853480.00,Address write: 5A
732,10453874400.00,ACK
733,10453886680.00,Command: CLEAR_FAULTS (03)
734,10453907600.00,ACK
735,10453917040.00,Data write: 12
736,10453917040.00,PEC OK: 12
737,10453937920.00,ACK
738,10453959360.00,Stop
739,11718850360.00,Start
740,11718854000.00,Address write: 5A
741,11718874920.00,ACK
742,11718887200.00,Command: READ_VIN (88)
743,11718908120.00,ACK
744,11718918920.00,Start repeat
745,11719263400.00,Address read: 5A
746,11719284320.00,ACK
747,11719613400.00,Data read: 98
748,11719634360.00,ACK
749,11719650680.00,Data read: F3
750,11719671680.00,ACK
751,11719683640.00,PEC OK: 7B
752,11719683640.00,Data read: 7B
753,11719704600.00,NACK
754,11719718000.00,Stop
755,11765854000.00,Start
756,11765857640.00,Address write: 5A
757,11765878560.00,ACK
758,11765890880.00,Command: READ_IIN (89)
759,11765911760.00,ACK
760,11765922560.00,Start repeat
761,11766270000.00,Address read: 5A
762,11766290920.00,ACK
763,11766631280.00,Data read: 80
764,11766652280.00,ACK
765,11766664400.00,Data read: BA
766,11766685400.00,ACK
767,11766697360.00,Data read: 6A
768,11766697360.00,PEC OK: 6A
769,11766718360.00,NACK
770,11766731720.00,Stop
771,11812856200.00,Start
772,11812859800.00,Address write: 5A
773,11812880760.00,ACK
774,11812893040.00,Command: READ_VOUT (8B)
775,11812913960.00,ACK
776,11812924760.00,Start repeat
777,11813278160.00,Address read: 5A
778,11813299120.00,ACK
779,11813640520.00,Data read: 00
780,11813661520.00,ACK
781,11813673440.00,Data read: 18
782,11813694440.00,ACK
783,11813706360.00,Data read: 97
784,11813706360.00,PEC OK: 97
785,11813727360.00,NACK
786,11813740760.00,Stop
787,11860855760.00,Start
788,11860859400.00,Address write: 5A
789,11860880320.00,ACK
790,11860892600.00,Command: READ_IOUT (8C)
791,11860913520.00,ACK
792,11860924320.00,Start repeat
793,11861280720.00,Address read: 5A
794,11861301680.00,ACK
795,11861643120.00,Data read: 50
796,11861664160.00,ACK
797,11861676080.00,Data read: DA
798,11861697080.00,ACK
799,11861709000.00,Data read: B9
800,11861709000.00,PEC OK: B9
801,11861730000.00,NACK
802,11861743400.00,Stop
803,11908856320.00,Start
804,11908859960.00,Address write: 5A
805,11908880880.00,ACK
806,11908893200.00,Command: READ_TEMPERATURE_1 (8D)
807,11908914080.00,ACK
808,11908924920.00,Start repeat
809,11909284320.00,Address read: 5A
810,11909305240.00,ACK
811,11909648680.00,Data read: 30
812,11909669680.00,ACK
813,11909681560.00,Data read: E2
814,11909702600.00,ACK
815,11909714520.00,Data read: F2
816,11909714520.00,PEC OK: F2
817,11909735520.00,NACK
818,11909748920.00,Stop
819,11956853480.00,Start
820,11956857080.00,Address write: 5A
821,11956878040.00,ACK
822,11956890320.00,Command: READ_TEMPERATURE_2 (8E)
823,11956911240.00,ACK
824,11956926480.00,Start repeat
825,11957288840.00,Address read: 5A
826,11957309800.00,ACK
827,11957650800.00,Data read: B0
828,11957671840.00,ACK
829,11957683720.00,Data read: E2
830,11957704760.00,ACK
831,11957716680.00,Data read: 7E
832,11957716680.00,PEC OK: 7E
833,11957737640.00,NACK
834,11957751040.00,Stop
835,12004859960.00,Start
836,12004863560.00,Address write: 5A
837,12004884520.00,ACK
838,12004896800.00,Command: READ_TEMPERATURE_3 (8F)
839,12004917720.00,ACK
840,12004928560.00,Start repeat
841,12005293960.00,Address read: 5A
842,12005314880.00,ACK
843,12005657880.00,Data read: 20
844,12005678880.00,ACK
845,12005690800.00,Data read: E3
846,12005711800.00,ACK
847,12005723720.00,PEC OK: 8E
848,12005723720.00,Data read: 8E
849,12005744720.00,NACK
850,12005758160.00,Stop
851,12051862400.00,Start
852,12051866000.00,Address write: 5A
853,12051886960.00,ACK
854,12051899280.00,Command: READ_FAN_SPEED_1 (90)
855,12051920160.00,ACK
856,12051930960.00,Start repeat
857,12052299320.00,Address read: 5A
858,12052320280.00,ACK
859,12052665320.00,Data read: EE
860,12052686320.00,ACK
861,12052724080.00,Data read: 22
862,12052745080.00,ACK
863,12052757000.00,Data read: 49
864,12052757000.00,PEC OK: 49
865,12052778040.00,NACK
866,12052791400.00,Stop
867,12099859240.00,Start
868,12099862840.00,Address write: 5A
869,12099883800.00,ACK
870,12099896080.00,Command: READ_FAN_SPEED_2 (91)
871,12099916960.00,ACK
872,12099927800.00,Start repeat
873,12100299160.00,Address read: 5A
874,12100320080.00,ACK
875,12100667080.00,Data read: E2
876,12100688120.00,ACK
877,12100704400.00,Data read: 22
878,12100725360.00,ACK
879,12100737480.00,Data read: A3
880,12100737480.00,PEC OK: A3
881,12100758480.00,NACK
882,12100771880.00,Stop
883,12147853280.00,Start
884,12147856880.00,Address write: 5A
885,12147877800.00,ACK
886,12147890120.00,Command: READ_POUT (96)
887,12147911040.00,ACK
888,12147921880.00,Start repeat
889,12148308200.00,Address read: 5A
890,12148329120.00,ACK
891,12148686160.00,Data read: 78
892,12148707160.00,ACK
893,12148723440.00,Data read: F3
894,12148744440.00,ACK
895,12148756360.00,Data read: 9B
896,12148756360.00,PEC OK: 9B
897,12148777360.00,NACK
898,12148790760.00,Stop
899,12194859280.00,Start
900,12194862920.00,Address write: 5A
901,12194883840.00,ACK
902,12194896120.00,Command: READ_PIN (97)
903,12194917080.00,ACK
904,12194927920.00,Start repeat
905,12195317240.00,Address read: 5A
906,12195338200.00,ACK
907,12195697440.00,Data read: 28
908,12195718440.00,ACK
909,12195734720.00,Data read: FA
910,12195755720.00,ACK
911,12195767680.00,Data read: BE
912,12195767680.00,PEC OK: BE
913,12195788680.00,NACK
914,12195802040.00,Stop
915,12242860760.00,Start
916,12242864600.00,Address write: 5A
917,12242885520.00,ACK
918,12242897800.00,Command: READ_EIN (86)
919,12242918680.00,ACK
920,12242929520.00,Start repeat
921,12243267960.00,Address read: 5A
922,12243288920.00,ACK
923,12243643040.00,Data read: 06
924,12243664040.00,ACK
925,12243680320.00,Data read: E4
926,12243701360.00,ACK
927,12243713280.00,Data read: E3
928,12243734280.00,ACK
929,12243746200.00,Data read: 25
930,12243767200.00,ACK
931,12243779120.00,Data read: 25
932,12243800120.00,ACK
933,12243812040.00,Data read: 23
934,12243833040.00,ACK
935,12243844960.00,Data read: 00
936,12243865960.00,ACK
937,12243877880.00,Data read: C0
938,12243877880.00,PEC OK: C0
939,12243898880.00,NACK
940,12243912280.00,Stop
941,12289862160.00,Start
942,12289866000.00,Address write: 5A
943,12289886960.00,ACK
944,12289899240.00,Command: READ_EOUT (87)
945,12289920160.00,ACK
946,12289930960.00,Start repeat
947,12290272400.00,Address read: 5A
948,12290293360.00,ACK
949,12290653920.00,Data read: 06
950,12290674920.00,ACK
951,12290686880.00,Data read: C2
952,12290707880.00,ACK
953,12290719800.00,Data read: 82
954,12290740800.00,ACK
955,12290752720.00,Data read: 1E
956,12290773680.00,ACK
957,12290785600.00,Data read: 2F
958,12290806600.00,ACK
959,12290818520.00,Data read: 23
960,12290839520.00,ACK
961,12290851440.00,Data read: 00
962,12290872440.00,ACK
963,12290884360.00,Data read: 1E
964,12290884360.00,PEC OK: 1E
965,12290905360.00,NACK
966,12290918760.00,Stop
967,12337859240.00,Start
968,12337863080.00,Address write: 5A
969,12337884040.00,ACK
970,12337896320.00,Command: MFR_ID (99)
971,12337917240.00,ACK
972,12337928080.00,Start repeat
973,12338323400.00,Address read: 5A
974,12338344320.00,ACK
975,12338763360.00,Data read: 0A
976,12338784360.00,ACK
977,12338796280.00,Data read: 4D
978,12338817280.00,ACK
979,12338829200.00,Data read: 46
980,12338850240.00,ACK
981,12338862160.00,Data read: 52
982,12338883160.00,ACK
983,12338895040.00,Data read: 5F
984,12338916040.00,ACK
985,12338927960.00,Data read: 49
986,12338948960.00,ACK
987,12338960920.00,Data read: 44
988,12338981880.00,ACK
989,12338993800.00,Data read: 5F
990,12339014800.00,ACK
991,12339026720.00,Data read: 30
992,12339047720.00,ACK
993,12339059680.00,Data read: 30
994,12339080680.00,ACK
995,12339092600.00,Data read: 31
996,12339113600.00,ACK
997,12339140920.00,Data read: 0B
998,12339140920.00,PEC OK: 0B
999,12339161920.00,NACK
1000,12339175320.00,Stop
1001,12369855360.00,Start
1002,12369859200.00,Address write: 5A
1003,12369880160.00,ACK
1004,12369892440.00,Command: MFR_MODEL (9A)
1005,12369913360.00,ACK
1006,12369924200.00,Start repeat
1007,12370322520.00,Address read: 5A
1008,12370343440.00,ACK
1009,12370781080.00,Data read: 0D
1010,12370802080.00,ACK
1011,12370814000.00,Data read: 4D
1012,12370835000.00,ACK
1013,12370846920.00,Data read: 46
1014,12370867920.00,ACK
1015,12370879840.00,Data read: 52
1016,12370900840.00,ACK
1017,12370912760.00,Data read: 5F
1018,12370933800.00,ACK
1019,12370945720.00,Data read: 4D
1020,12370966720.00,ACK
1021,12370978640.00,Data read: 4F
1022,12370999640.00,ACK
1023,12371011560.00,Data read: 44
1024,12371032560.00,ACK
1025,12371044480.00,Data read: 45
1026,12371065480.00,ACK
1027,12371082640.00,Data read: 4C
1028,12371103600.00,ACK
1029,12371115520.00,Data read: 5F
1030,12371136520.00,ACK
1031,12371148480.00,Data read: 30
1032,12371169480.00,ACK
1033,12371181400.00,Data read: 30
1034,12371202400.00,ACK
1035,12371214320.00,Data read: 31
1036,12371235320.00,ACK
1037,12371247240.00,Data read: 06
1038,12371247240.00,PEC OK: 06
1039,12371268240.00,NACK
1040,12371281640.00,Stop
1041,12415859600.00,Start
1042,12415863440.00,Address write: 5A
1043,12415884360.00,ACK
1044,12415896640.00,Command: MFR_REVISION (9B)
1045,12415917600.00,ACK
1046,12415928440.00,Start repeat
1047,12416329720.00,Address read: 5A
1048,12416350640.00,ACK
1049,12416779040.00,Data read: 0B
1050,12416800040.00,ACK
1051,12416811960.00,Data read: 4D
1052,12416832960.00,ACK
1053,12416844880.00,Data read: 46
1054,12416865880.00,ACK
1055,12416877800.00,Data read: 52
1056,12416898800.00,ACK
1057,12416910760.00,Data read: 5F
1058,12416931720.00,ACK
1059,12416943640.00,Data read: 52
1060,12416964640.00,ACK
1061,12416981800.00,Data read: 45
1062,12417002800.00,ACK
1063,12417014720.00,Data read: 56
1064,12417035720.00,ACK
1065,12417047640.00,Data read: 5F
1066,12417068640.00,ACK
1067,12417080560.00,Data read: 30
1068,12417101560.00,ACK
1069,12417113480.00,Data read: 30
1070,12417134480.00,ACK
1071,12417146400.00,Data read: 31
1072,12417167400.00,ACK
1073,12417179320.00,Data read: A9
1074,12417179320.00,PEC OK: A9
1075,12417200360.00,NACK
1076,12417213760.00,Stop
1077,12463862240.00,Start
1078,12463866080.00,Address write: 5A
1079,12463887040.00,ACK
1080,12463899320.00,Command: MFR_SERIAL (9E)
1081,12463920240.00,ACK
1082,12463931080.00,Start repeat
1083,12464335400.00,Address read: 5A
1084,12464356320.00,ACK
1085,12464799120.00,Data read: 0E
1086,12464820120.00,ACK
1087,12464832040.00,Data read: 4D
1088,12464853040.00,ACK
1089,12464883680.00,Data read: 46
1090,12464904680.00,ACK
1091,12464916600.00,Data read: 52
1092,12464937600.00,ACK
1093,12464949520.00,Data read: 5F
1094,12464970560.00,ACK
1095,12464982480.00,Data read: 53
1096,12465003480.00,ACK
1097,12465015400.00,Data read: 45
1098,12465036400.00,ACK
1099,12465048320.00,Data read: 52
1100,12465069320.00,ACK
1101,12465081200.00,Data read: 49
1102,12465102240.00,ACK
1103,12465114160.00,Data read: 41
1104,12465135160.00,ACK
1105,12465147080.00,Data read: 4C
1106,12465168080.00,ACK
1107,12465180000.00,Data read: 5F
1108,12465201000.00,ACK
1109,12465212920.00,Data read: 30
1110,12465233920.00,ACK
1111,12465245840.00,Data read: 30
1112,12465266840.00,ACK
1113,12465278800.00,Data read: 31
1114,12465299800.00,ACK
1115,12465311720.00,Data read: FC
1116,12465311720.00,PEC OK: FC
1117,12465332720.00,NACK
1118,12465346120.00,Stop
1119,13462863200.00,Start
1120,13462866840.00,Address write: 5A
1121,13462887760.00,ACK
1122,13462909440.00,Command: PAGE (00)
1123,13462930280.00,ACK
1124,13462941120.00,Start repeat
1125,13462968120.00,Address read: 5A
1126,13462989080.00,ACK
1127,13463100840.00,Data read: 00
1128,13463121840.00,ACK
1129,13463133760.00,Data read: CE
1130,13463133760.00,PEC OK: CE
1131,13463154760.00,NACK
1132,13463168160.00,Stop
1133,13494868840.00,Start
1134,13494872480.00,Address write: 5A
1135,13494893400.00,ACK
1136,13494905680.00,Command: OPERATION (01)
1137,13494926560.00,ACK
1138,13494937400.00,Start repeat
1139,13494967400.00,Address read: 5A
1140,13494988360.00,ACK
1141,13495102200.00,Data read: 80
1142,13495123240.00,ACK
1143,13495135160.00,Data read: 2C
1144,13495135160.00,PEC OK: 2C
1145,13495156120.00,NACK
1146,13495169520.00,Stop
1147,13526874200.00,Start
1148,13526877840.00,Address write: 5A
1149,13526898760.00,ACK
1150,13526911080.00,Command: ON_OFF_CONFIG (02)
1151,13526931960.00,ACK
1152,13526942760.00,Start repeat
1153,13526975800.00,Address read: 5A
1154,13526996720.00,ACK
1155,13527112520.00,Data read: 1A
1156,13527133520.00,ACK
1157,13527145480.00,Data read: 5E
1158,13527145480.00,PEC OK: 5E
1159,13527166480.00,NACK
1160,13527180560.00,Stop
1161,13557866440.00,Start
1162,13557870040.00,Address write: 5A
1163,13557891000.00,ACK
1164,13557903280.00,Command: PHASE (04)
1165,13557924160.00,ACK
1166,13557934960.00,Start repeat
1167,13557973960.00,Address read: 5A
1168,13557994920.00,ACK
1169,13558114800.00,Data read: 00
1170,13558135800.00,ACK
1171,13558147720.00,Data read: 65
1172,13558147720.00,PEC OK: 65
1173,13558168720.00,NACK
1174,13558182120.00,Stop
1175,13588865680.00,Start
1176,13588869320.00,Address write: 5A
1177,13588890240.00,ACK
1178,13588902520.00,Command: PAGE_PLUS_READ (06)
1179,13588923440.00,ACK
1180,13588932920.00,Data write: 02
1181,13588953800.00,ACK
1182,13588963280.00,Data write: 00
1183,13588984120.00,ACK
1184,13588993560.00,Data write: 98
1185,13589014480.00,ACK
1186,13589025320.00,Start repeat
1187,13589146880.00,Address read: 5A
1188,13589167840.00,ACK
1189,13589502440.00,Data read: 01
1190,13589523440.00,ACK
1191,13589535360.00,Data read: 33
1192,13589556360.00,ACK
1193,13589568240.00,Data read: 74
1194,13589568240.00,PEC OK: 74
1195,13589589280.00,NACK
1196,13589602680.00,Stop
1197,13621867520.00,Start
1198,13621871120.00,Address write: 5A
1199,13621892080.00,ACK
1200,13621904360.00,Command: ZONE_CONFIG (07)
1201,13621925280.00,ACK
1202,13621936120.00,Start repeat
1203,13621984160.00,Address read: 5A
1204,13622005080.00,ACK
1205,13622136480.00,Data read: 00
1206,13622157480.00,ACK
1207,13622169440.00,Data read: 00
1208,13622190440.00,ACK
1209,13622202360.00,Data read: 06
1210,13622202360.00,PEC OK: 06
1211,13622223360.00,NACK
1212,13622236760.00,Stop
1213,13653873000.00,Start
1214,13653876600.00,Address write: 5A
1215,13653897520.00,ACK
1216,13653909800.00,Command: ZONE_ACTIVE (08)
1217,13653930680.00,ACK
1218,13653941520.00,Start repeat
1219,13653992560.00,Address read: 5A
1220,13654013480.00,ACK
1221,13654147000.00,Data read: 00
1222,13654168000.00,ACK
1223,13654179920.00,Data read: 00
1224,13654200920.00,ACK
1225,13654212840.00,PEC OK: D4
1226,13654212840.00,Data read: D4
1227,13654233840.00,NACK
1228,13654247240.00,Stop
1229,13685865960.00,Start
1230,13685869560.00,Address write: 5A
1231,13685890520.00,ACK
1232,13685902800.00,Command: WRITE_PROTECT (10)
1233,13685923680.00,ACK
1234,13685934480.00,Start repeat
1235,13685988680.00,Address read: 5A
1236,13686009600.00,ACK
1237,13686139440.00,Data read: 00
1238,13686160440.00,ACK
1239,13686172360.00,PEC OK: 6C
1240,13686172360.00,Data read: 6C
1241,13686193360.00,NACK
1242,13686206760.00,Stop
1243,13717869000.00,Start
1244,13717872640.00,Address write: 5A
1245,13717893560.00,ACK
1246,13717905840.00,Command: CAPABILITY (19)
1247,13717926800.00,ACK
1248,13717937600.00,Start repeat
1249,13718018520.00,Address read: 5A
1250,13718039480.00,ACK
1251,13718187280.00,Data read: 80
1252,13718208280.00,ACK
1253,13718220200.00,PEC OK: DF
1254,13718220200.00,Data read: DF
1255,13718241200.00,NACK
1256,13718254600.00,Stop
1257,13748876080.00,Start
1258,13748879680.00,Address write: 5A
1259,13748900640.00,ACK
1260,13748912920.00,Command: QUERY (1A)
1261,13748933800.00,ACK
1262,13748943280.00,Data write: 01
1263,13748964160.00,ACK
1264,13748973600.00,Data write: 98
1265,13748994520.00,ACK
1266,13749005320.00,Start repeat
1267,13749257080.00,Address read: 5A
1268,13749278040.00,ACK
1269,13750546320.00,Data read: 01
1270,13750567320.00,ACK
1271,13750585560.00,Data read: B0
1272,13750606600.00,ACK
1273,13750618520.00,Data read: AC
1274,13750618520.00,PEC OK: AC
1275,13750639520.00,NACK
1276,13750652920.00,Stop
1277,13780875560.00,Start
1278,13780879160.00,Address write: 5A
1279,13780900080.00,ACK
1280,13780912400.00,Command: SMBALERT_MASK (1B)
1281,13780933320.00,ACK
1282,13780942760.00,Data write: 01
1283,13780963680.00,ACK
1284,13780973120.00,Data write: 00
1285,13780994000.00,ACK
1286,13781004800.00,Start repeat
1287,13781241600.00,Address read: 5A
1288,13781262560.00,ACK
1289,13781545520.00,Data read: 02
1290,13781566520.00,ACK
1291,13781578480.00,Data read: 00
1292,13781599480.00,ACK
1293,13781611400.00,Data read: 00
1294,13781632400.00,ACK
1295,13781644320.00,Data read: DC
1296,13781644320.00,PEC OK: DC
1297,13781665320.00,NACK
1298,13781678720.00,Stop
1299,13811871840.00,Start
1300,13811875480.00,Address write: 5A
1301,13811896400.00,ACK
1302,13811908680.00,Command: VOUT_MODE (20)
1303,13811929560.00,ACK
1304,13811940400.00,Start repeat
1305,13812030320.00,Address read: 5A
1306,13812051240.00,ACK
1307,13812205000.00,Data read: 17
1308,13812226040.00,ACK
1309,13812242320.00,Data read: E8
1310,13812242320.00,PEC OK: E8
1311,13812263320.00,NACK
1312,13812276720.00,Stop
1313,13843875720.00,Start
1314,13843879360.00,Address write: 5A
1315,13843900280.00,ACK
1316,13843912560.00,Command: VOUT_COMMAND (21)
1317,13843933480.00,ACK
1318,13843944280.00,Start repeat
1319,13844037240.00,Address read: 5A
1320,13844058160.00,ACK
1321,13844219800.00,Data read: 00
1322,13844240800.00,ACK
1323,13844257080.00,Data read: 18
1324,13844278080.00,ACK
1325,13844290000.00,Data read: F4
1326,13844290000.00,PEC OK: F4
1327,13844311000.00,NACK
1328,13844324400.00,Stop
1329,13873868400.00,Start
1330,13873872000.00,Address write: 5A
1331,13873892920.00,ACK
1332,13873905240.00,Command: VOUT_TRIM (22)
1333,13873926160.00,ACK
1334,13873936960.00,Start repeat
1335,13874032920.00,Address read: 5A
1336,13874053880.00,ACK
1337,13874221680.00,Data read: 00
1338,13874242680.00,ACK
1339,13874254600.00,Data read: 00
1340,13874275600.00,ACK
1341,13874287520.00,Data read: 86
1342,13874287520.00,PEC OK: 86
1343,13874308520.00,NACK
1344,13874321920.00,Stop
1345,13906876560.00,Start
1346,13906880160.00,Address write: 5A
1347,13906901120.00,ACK
1348,13906913400.00,Command: VOUT_CAL_OFFSET (23)
1349,13906934360.00,ACK
1350,13906945360.00,Start repeat
1351,13907044320.00,Address read: 5A
1352,13907065240.00,ACK
1353,13907235080.00,Data read: 00
1354,13907256080.00,ACK
1355,13907268040.00,Data read: 00
1356,13907289040.00,ACK
1357,13907300960.00,Data read: 90
1358,13907300960.00,PEC OK: 90
1359,13907321960.00,NACK
1360,13907335360.00,Stop
1361,13938868600.00,Start
1362,13938872240.00,Address write: 5A
1363,13938893160.00,ACK
1364,13938905480.00,Command: VOUT_MAX (24)
1365,13938926400.00,ACK
1366,13938941640.00,Start repeat
1367,13939043600.00,Address read: 5A
1368,13939064520.00,ACK
1369,13939231920.00,Data read: 66
1370,13939252920.00,ACK
1371,13939264840.00,Data read: 1A
1372,13939285840.00,ACK
1373,13939297760.00,Data read: 3F
1374,13939297760.00,PEC OK: 3F
1375,13939318760.00,NACK
1376,13939332160.00,Stop
1377,13969872880.00,Start
1378,13969876520.00,Address write: 5A
1379,13969897440.00,ACK
1380,13969909760.00,Command: VOUT_MARGIN_HIGH (25)
1381,13969930680.00,ACK
1382,13969941480.00,Start repeat
1383,13970046400.00,Address read: 5A
1384,13970067320.00,ACK
1385,13970236720.00,Data read: 33
1386,13970257720.00,ACK
1387,13970269640.00,Data read: 19
1388,13970290640.00,ACK
1389,13970302560.00,PEC OK: 6D
1390,13970302560.00,Data read: 6D
1391,13970323560.00,NACK
1392,13970337000.00,Stop
1393,14000878000.00,Start
1394,14000881640.00,Address write: 5A
1395,14000902560.00,ACK
1396,14000914840.00,Command: VOUT_MARGIN_LOW (26)
1397,14000935760.00,ACK
1398,14000946560.00,Start repeat
1399,14001054520.00,Address read: 5A
1400,14001075440.00,ACK
1401,14001246800.00,Data read: CD
1402,14001267800.00,ACK
1403,14001279720.00,Data read: 16
1404,14001300720.00,ACK
1405,14001312640.00,Data read: B8
1406,14001312640.00,PEC OK: B8
1407,14001333640.00,NACK
1408,14001347040.00,Stop
1409,14033869960.00,Start
1410,14033873560.00,Address write: 5A
1411,14033894520.00,ACK
1412,14033906800.00,Command: VOUT_TRANSITION_RATE (27)
1413,14033927720.00,ACK
1414,14033938560.00,Start repeat
1415,14034049480.00,Address read: 5A
1416,14034070400.00,ACK
1417,14034243800.00,Data read: 00
1418,14034264800.00,ACK
1419,14034276720.00,Data read: 00
1420,14034297720.00,ACK
1421,14034309640.00,Data read: C8
1422,14034309640.00,PEC OK: C8
1423,14034330640.00,NACK
1424,14034344080.00,Stop
1425,14063870160.00,Start
1426,14063873760.00,Address write: 5A
1427,14063894720.00,ACK
1428,14063907000.00,Command: VOUT_DROOP (28)
1429,14063927880.00,ACK
1430,14063938680.00,Start repeat
1431,14064052600.00,Address read: 5A
1432,14064073520.00,ACK
1433,14064248880.00,Data read: 00
1434,14064269880.00,ACK
1435,14064281800.00,Data read: 00
1436,14064302800.00,ACK
1437,14064314720.00,Data read: 1A
1438,14064314720.00,PEC OK: 1A
1439,14064335720.00,NACK
1440,14064349120.00,Stop
1441,14096873440.00,Start
1442,14096877040.00,Address write: 5A
1443,14096898000.00,ACK
1444,14096910280.00,Command: VOUT_SCALE_LOOP (29)
1445,14096931200.00,ACK
1446,14096942000.00,Start repeat
1447,14097058920.00,Address read: 5A
1448,14097079840.00,ACK
1449,14097257200.00,Data read: 00
1450,14097278200.00,ACK
1451,14097290120.00,Data read: 00
1452,14097311120.00,ACK
1453,14097323080.00,Data read: 0C
1454,14097323080.00,PEC OK: 0C
1455,14097344080.00,NACK
1456,14097357440.00,Stop
1457,14127869600.00,Start
1458,14127873200.00,Address write: 5A
1459,14127894120.00,ACK
1460,14127906440.00,Command: VOUT_SCALE_MONITOR (2A)
1461,14127927360.00,ACK
1462,14127938200.00,Start repeat
1463,14128058320.00,Address read: 5A
1464,14128079240.00,ACK
1465,14128258560.00,Data read: 00
1466,14128279560.00,ACK
1467,14128291480.00,Data read: 00
1468,14128312480.00,ACK
1469,14128324400.00,Data read: 36
1470,14128324400.00,PEC OK: 36
1471,14128345400.00,NACK
1472,14128358800.00,Stop
1473,14159879120.00,Start
1474,14159882720.00,Address write: 5A
1475,14159903640.00,ACK
1476,14159915960.00,Command: VOUT_MIN (2B)
1477,14159936880.00,ACK
1478,14159947720.00,Start repeat
1479,14160070600.00,Address read: 5A
1480,14160091560.00,ACK
1481,14160272920.00,Data read: 9A
1482,14160293920.00,ACK
1483,14160305840.00,Data read: 15
1484,14160326840.00,ACK
1485,14160338760.00,Data read: 28
1486,14160338760.00,PEC OK: 28
1487,14160359760.00,NACK
1488,14160373160.00,Stop
1489,14190875400.00,Start
1490,14190879040.00,Address write: 5A
1491,14190899960.00,ACK
1492,14190912240.00,Command: COEFFICIENTS (30)
1493,14190933160.00,ACK
1494,14190942640.00,Data write: 01
1495,14190963520.00,ACK
1496,14190973000.00,Data write: 8B
1497,14190993920.00,ACK
1498,14191004760.00,Start repeat
1499,14191396240.00,Address read: 5A
1500,14191417160.00,ACK
1501,14191796280.00,Data read: 05
1502,14191817280.00,ACK
1503,14191829240.00,Data read: 01
1504,14191850240.00,ACK
1505,14191862160.00,Data read: 00
1506,14191883160.00,ACK
1507,14191895080.00,Data read: 00
1508,14191916080.00,ACK
1509,14191928000.00,Data read: 00
1510,14191949000.00,ACK
1511,14191960920.00,Data read: 03
1512,14191981920.00,ACK
1513,14191993840.00,Data read: A1
1514,14191993840.00,PEC OK: A1
1515,14192014840.00,NACK
1516,14192028240.00,Stop
1517,14222869080.00,Start
1518,14222872680.00,Address write: 5A
1519,14222893640.00,ACK
1520,14222905920.00,Command: POUT_MAX (31)
1521,14222926880.00,ACK
1522,14222937680.00,Start repeat
1523,14223066600.00,Address read: 5A
1524,14223087520.00,ACK
1525,14223272880.00,Data read: 58
1526,14223293880.00,ACK
1527,14223305800.00,Data read: FA
1528,14223326800.00,ACK
1529,14223343080.00,Data read: 97
1530,14223343080.00,PEC OK: 97
1531,14223364080.00,NACK
1532,14223377440.00,Stop
1533,14254872920.00,Start
1534,14254876520.00,Address write: 5A
1535,14254897440.00,ACK
1536,14254909760.00,Command: MAX_DUTY (32)
1537,14254930680.00,ACK
1538,14254941480.00,Start repeat
1539,14255073360.00,Address read: 5A
1540,14255094320.00,ACK
1541,14255281880.00,Data read: 20
1542,14255302880.00,ACK
1543,14255319200.00,Data read: EB
1544,14255340200.00,ACK
1545,14255352120.00,Data read: D0
1546,14255352120.00,PEC OK: D0
1547,14255373120.00,NACK
1548,14255386520.00,Stop
1549,14288874960.00,Start
1550,14288878600.00,Address write: 5A
1551,14288899520.00,ACK
1552,14288911800.00,Command: FREQUENCY_SWITCH (33)
1553,14288932760.00,ACK
1554,14288943600.00,Start repeat
1555,14289078440.00,Address read: 5A
1556,14289099400.00,ACK
1557,14289288720.00,Data read: 0D
1558,14289309720.00,ACK
1559,14289327960.00,Data read: 3B
1560,14289348960.00,ACK
1561,14289360880.00,Data read: BF
1562,14289360880.00,PEC OK: BF
1563,14289381880.00,NACK
1564,14289395280.00,Stop
1565,14333876080.00,Start
1566,14333879680.00,Address write: 5A
1567,14333900640.00,ACK
1568,14333912920.00,Command: POWER_MODE (34)
1569,14333933840.00,ACK
1570,14333944680.00,Start repeat
1571,14334082480.00,Address read: 5A
1572,14334103400.00,ACK
1573,14334293560.00,Data read: 00
1574,14334314560.00,ACK
1575,14334326720.00,Data read: 84
1576,14334326720.00,PEC OK: 84
1577,14334347680.00,NACK
1578,14334361120.00,Stop
1579,14365874760.00,Start
1580,14365878400.00,Address write: 5A
1581,14365899320.00,ACK
1582,14365911600.00,Command: VIN_ON (35)
1583,14365932560.00,ACK
1584,14365943360.00,Start repeat
1585,14366084200.00,Address read: 5A
1586,14366105160.00,ACK
1587,14366303120.00,Data read: D0
1588,14366324160.00,ACK
1589,14366336080.00,Data read: F2
1590,14366357080.00,ACK
1591,14366369000.00,Data read: E9
1592,14366369000.00,PEC OK: E9
1593,14366390000.00,NACK
1594,14366403400.00,Stop
1595,14395878080.00,Start
1596,14395881680.00,Address write: 5A
1597,14395902600.00,ACK
1598,14395914920.00,Command: VIN_OFF (36)
1599,14395935840.00,ACK
1600,14395946680.00,Start repeat
1601,14396090520.00,Address read: 5A
1602,14396111440.00,ACK
1603,14396311160.00,Data read: A8
1604,14396332160.00,ACK
1605,14396344080.00,Data read: F2
1606,14396365080.00,ACK
1607,14396377000.00,PEC OK: D9
1608,14396377000.00,Data read: D9
1609,14396398000.00,NACK
1610,14396411440.00,Stop
1611,14427872800.00,Start
1612,14427876440.00,Address write: 5A
1613,14427897360.00,ACK
1614,14427929240.00,Command: INTERLEAVE (37)
1615,14427950200.00,ACK
1616,14427961000.00,Start repeat
1617,14428107880.00,Address read: 5A
1618,14428128760.00,ACK
1619,14428326120.00,Data read: 00
1620,14428347120.00,ACK
1621,14428359040.00,Data read: 00
1622,14428380040.00,ACK
1623,14428391960.00,Data read: AF
1624,14428391960.00,PEC OK: AF
1625,14428412960.00,NACK
1626,14428426360.00,Stop
1627,14459881320.00,Start
1628,14459884920.00,Address write: 5A
1629,14459905880.00,ACK
1630,14459918160.00,Command: IOUT_CAL_GAIN (38)
1631,14459939080.00,ACK
1632,14459949920.00,Start repeat
1633,14460099720.00,Address read: 5A
1634,14460120680.00,ACK
1635,14460320000.00,Data read: 00
1636,14460341000.00,ACK
1637,14460352920.00,Data read: 00
1638,14460373920.00,ACK
1639,14460385840.00,Data read: 7D
1640,14460385840.00,PEC OK: 7D
1641,14460406840.00,NACK
1642,14460420240.00,Stop
1643,14489882400.00,Start
1644,14489886000.00,Address write: 5A
1645,14489906960.00,ACK
1646,14489919240.00,Command: IOUT_CAL_OFFSET (39)
1647,14489940200.00,ACK
1648,14489951000.00,Start repeat
1649,14490103840.00,Address read: 5A
1650,14490124800.00,ACK
1651,14490326120.00,Data read: 00
1652,14490347120.00,ACK
1653,14490359040.00,Data read: 00
1654,14490380040.00,ACK
1655,14490391960.00,Data read: 6B
1656,14490391960.00,PEC OK: 6B
1657,14490412960.00,NACK
1658,14490426360.00,Stop
1659,14521876920.00,Start
1660,14521880520.00,Address write: 5A
1661,14521901440.00,ACK
1662,14521913760.00,Command: FAN_CONFIG_1_2 (3A)
1663,14521934680.00,ACK
1664,14521945520.00,Start repeat
1665,14522101280.00,Address read: 5A
1666,14522122240.00,ACK
1667,14522319960.00,Data read: 00
1668,14522340960.00,ACK
1669,14522352880.00,Data read: A8
1670,14522352880.00,PEC OK: A8
1671,14522373880.00,NACK
1672,14522387320.00,Stop
1673,14552876400.00,Start
1674,14552880040.00,Address write: 5A
1675,14552900960.00,ACK
1676,14552913240.00,Command: FAN_COMMAND_1 (3B)
1677,14552934200.00,ACK
1678,14552945040.00,Start repeat
1679,14553103880.00,Address read: 5A
1680,14553124800.00,ACK
1681,14553330080.00,Data read: EE
1682,14553351080.00,ACK
1683,14553363000.00,Data read: 22
1684,14553384000.00,ACK
1685,14553395920.00,Data read: 3C
1686,14553395920.00,PEC OK: 3C
1687,14553416920.00,NACK
1688,14553430320.00,Stop
1689,14584882720.00,Start
1690,14584886360.00,Address write: 5A
1691,14584907280.00,ACK
1692,14584919800.00,Command: FAN_COMMAND_2 (3C)
1693,14584940760.00,ACK
1694,14584951560.00,Start repeat
1695,14585113400.00,Address read: 5A
1696,14585134320.00,ACK
1697,14585341680.00,Data read: E2
1698,14585362680.00,ACK
1699,14585374600.00,Data read: 22
1700,14585395600.00,ACK
1701,14585407560.00,Data read: A2
1702,14585407560.00,PEC OK: A2
1703,14585428520.00,NACK
1704,14585441920.00,Stop
1705,14616872640.00,Start
1706,14616876280.00,Address write: 5A
1707,14616897200.00,ACK
1708,14616909520.00,Command: FAN_CONFIG_3_4 (3D)
1709,14616930480.00,ACK
1710,14616941280.00,Start repeat
1711,14617106040.00,Address read: 5A
1712,14617127000.00,ACK
1713,14617330680.00,Data read: 00
1714,14617351680.00,ACK
1715,14617363600.00,Data read: BE
1716,14617363600.00,PEC OK: BE
1717,14617384640.00,NACK
1718,14617398000.00,Stop
1719,14648874640.00,Start
1720,14648878280.00,Address write: 5A
1721,14648899200.00,ACK
1722,14648911480.00,Command: FAN_COMMAND_3 (3E)
1723,14648932440.00,ACK
1724,14648943280.00,Start repeat
1725,14649111080.00,Address read: 5A
1726,14649132000.00,ACK
1727,14649343240.00,Data read: 00
1728,14649364240.00,ACK
1729,14649376160.00,Data read: 00
1730,14649397160.00,ACK
1731,14649409120.00,Data read: 09
1732,14649409120.00,PEC OK: 09
1733,14649430080.00,NACK
1734,14649443520.00,Stop
1735,14678883840.00,Start
1736,14678887440.00,Address write: 5A
1737,14678908360.00,ACK
1738,14678920680.00,Command: FAN_COMMAND_4 (3F)
1739,14678941640.00,ACK
1740,14678952480.00,Start repeat
1741,14679123280.00,Address read: 5A
1742,14679144200.00,ACK
1743,14679357480.00,Data read: 00
1744,14679378480.00,ACK
1745,14679390400.00,Data read: 00
1746,14679411400.00,ACK
1747,14679427680.00,Data read: 1F
1748,14679427680.00,PEC OK: 1F
1749,14679448680.00,NACK
1750,14679462080.00,Stop
1751,14710880640.00,Start
1752,14710884240.00,Address write: 5A
1753,14710905160.00,ACK
1754,14710917480.00,Command: VOUT_OV_FAULT_LIMIT (40)
1755,14710938360.00,ACK
1756,14710949160.00,Start repeat
1757,14711122960.00,Address read: 5A
1758,14711143880.00,ACK
1759,14711359120.00,Data read: 66
1760,14711380120.00,ACK
1761,14711396400.00,Data read: 1A
1762,14711417400.00,ACK
1763,14711429320.00,Data read: 32
1764,14711429320.00,PEC OK: 32
1765,14711450320.00,NACK
1766,14711463720.00,Stop
1767,14743884360.00,Start
1768,14743887960.00,Address write: 5A
1769,14743908920.00,ACK
1770,14743921200.00,Command: VOUT_OV_FAULT_RESPONSE (41)
1771,14743942120.00,ACK
1772,14743952920.00,Start repeat
1773,14744129640.00,Address read: 5A
1774,14744150600.00,ACK
1775,14744362200.00,Data read: 00
1776,14744383240.00,ACK
1777,14744399520.00,Data read: 23
1778,14744399520.00,PEC OK: 23
1779,14744420520.00,NACK
1780,14744433880.00,Stop
1781,14774891000.00,Start
1782,14774894640.00,Address write: 5A
1783,14774915560.00,ACK
1784,14774927880.00,Command: VOUT_OV_WARN_LIMIT (42)
1785,14774948800.00,ACK
1786,14774959600.00,Start repeat
1787,14775139360.00,Address read: 5A
1788,14775160280.00,ACK
1789,14775379720.00,Data read: 33
1790,14775400720.00,ACK
1791,14775417040.00,Data read: 19
1792,14775438040.00,ACK
1793,14775449960.00,Data read: 5A
1794,14775449960.00,PEC OK: 5A
1795,14775470960.00,NACK
1796,14775484360.00,Stop
1797,14806892400.00,Start
1798,14806896000.00,Address write: 5A
1799,14806916960.00,ACK
1800,14806929240.00,Command: VOUT_UV_WARN_LIMIT (43)
1801,14806950160.00,ACK
1802,14806961000.00,Start repeat
1803,14807143760.00,Address read: 5A
1804,14807164680.00,ACK
1805,14807390520.00,Data read: CD
1806,14807411520.00,ACK
1807,14807423480.00,Data read: 16
1808,14807444440.00,ACK
1809,14807456360.00,Data read: A3
1810,14807456360.00,PEC OK: A3
1811,14807477360.00,NACK
1812,14807490760.00,Stop
1813,14838889040.00,Start
1814,14838892640.00,Address write: 5A
1815,14838913600.00,ACK
1816,14838925880.00,Command: VOUT_UV_FAULT_LIMIT (44)
1817,14838946800.00,ACK
1818,14838957640.00,Start repeat
1819,14839143360.00,Address read: 5A
1820,14839164320.00,ACK
1821,14839391960.00,Data read: 9A
1822,14839412960.00,ACK
1823,14839424880.00,Data read: 15
1824,14839445880.00,ACK
1825,14839457840.00,PEC OK: AF
1826,14839457840.00,Data read: AF
1827,14839478840.00,NACK
1828,14839492240.00,Stop
1829,14869887360.00,Start
1830,14869890960.00,Address write: 5A
1831,14869911880.00,ACK
1832,14869924200.00,Command: VOUT_UV_FAULT_RESPONSE (45)
1833,14869945120.00,ACK
1834,14869955920.00,Start repeat
1835,14870144600.00,Address read: 5A
1836,14870165520.00,ACK
1837,14870389800.00,Data read: 00
1838,14870410800.00,ACK
1839,14870422720.00,Data read: 88
1840,14870422720.00,PEC OK: 88
1841,14870443760.00,NACK
1842,14870457120.00,Stop
1843,14901879560.00,Start
1844,14901883160.00,Address write: 5A
1845,14901904080.00,ACK
1846,14901934760.00,Command: IOUT_OC_FAULT_LIMIT (46)
1847,14901955680.00,ACK
1848,14901966480.00,Start repeat
1849,14902158240.00,Address read: 5A
1850,14902179160.00,ACK
1851,14902406400.00,Data read: 20
1852,14902427360.00,ACK
1853,14902439280.00,Data read: DB
1854,14902460280.00,ACK
1855,14902472200.00,Data read: 2A
1856,14902472200.00,PEC OK: 2A
1857,14902493200.00,NACK
1858,14902506640.00,Stop
1859,14934879480.00,Start
1860,14934883120.00,Address write: 5A
1861,14934904040.00,ACK
1862,14934916320.00,Command: IOUT_OC_FAULT_RESPONSE (47)
1863,14934937280.00,ACK
1864,14934948080.00,Start repeat
1865,14935142760.00,Address read: 5A
1866,14935163680.00,ACK
1867,14935387280.00,Data read: 00
1868,14935408280.00,ACK
1869,14935420200.00,Data read: 5E
1870,14935420200.00,PEC OK: 5E
1871,14935441200.00,NACK
1872,14935454600.00,Stop
1873,14964874600.00,Start
1874,14964878200.00,Address write: 5A
1875,14964899160.00,ACK
1876,14964911440.00,Command: IOUT_OC_LV_FAULT_LIMIT (48)
1877,14964932320.00,ACK
1878,14964943160.00,Start repeat
1879,14965140840.00,Address read: 5A
1880,14965161760.00,ACK
1881,14965393000.00,Data read: 00
1882,14965414000.00,ACK
1883,14965425920.00,Data read: BA
1884,14965446920.00,ACK
1885,14965458840.00,Data read: 60
1886,14965458840.00,PEC OK: 60
1887,14965479840.00,NACK
1888,14965493240.00,Stop
1889,14996878800.00,Start
1890,14996882440.00,Address write: 5A
1891,14996903360.00,ACK
1892,14996915680.00,Command: IOUT_OC_LV_FAULT_RESPONSE (49)
1893,14996936560.00,ACK
1894,14996949080.00,Start repeat
1895,14997149720.00,Address read: 5A
1896,14997170640.00,ACK
1897,14997398280.00,Data read: 00
1898,14997419280.00,ACK
1899,14997431240.00,Data read: 72
1900,14997431240.00,PEC OK: 72
1901,14997452240.00,NACK
1902,14997465640.00,Stop
1903,15027884360.00,Start
1904,15027887960.00,Address write: 5A
1905,15027908880.00,ACK
1906,15027921200.00,Command: IOUT_OC_WARN_LIMIT (4A)
1907,15027942120.00,ACK
1908,15027952920.00,Start repeat
1909,15028156640.00,Address read: 5A
1910,15028177560.00,ACK
1911,15028412760.00,Data read: C0
1912,15028433760.00,ACK
1913,15028445680.00,Data read: DA
1914,15028466680.00,ACK
1915,15028478800.00,Data read: 86
1916,15028478800.00,PEC OK: 86
1917,15028499800.00,NACK
1918,15028513200.00,Stop
1919,15059881640.00,Start
1920,15059885280.00,Address write: 5A
1921,15059906200.00,ACK
1922,15059918480.00,Command: IOUT_UC_FAULT_LIMIT (4B)
1923,15059939440.00,ACK
1924,15059950280.00,Start repeat
1925,15060156960.00,Address read: 5A
1926,15060177880.00,ACK
1927,15060415120.00,Data read: 00
1928,15060436120.00,ACK
1929,15060448040.00,Data read: 00
1930,15060469040.00,ACK
1931,15060480960.00,PEC OK: 75
1932,15060480960.00,Data read: 75
1933,15060501960.00,NACK
1934,15060515360.00,Stop
1935,15091877880.00,Start
1936,15091881480.00,Address write: 5A
1937,15091902440.00,ACK
1938,15091914720.00,Command: IOUT_UC_FAULT_RESPONSE (4C)
1939,15091935640.00,ACK
1940,15091946480.00,Start repeat
1941,15092156120.00,Address read: 5A
1942,15092177040.00,ACK
1943,15092410680.00,Data read: 00
1944,15092431680.00,ACK
1945,15092443600.00,Data read: B2
1946,15092443600.00,PEC OK: B2
1947,15092464600.00,NACK
1948,15092478000.00,Stop
1949,15121881600.00,Start
1950,15121885200.00,Address write: 5A
1951,15121906120.00,ACK
1952,15121918440.00,Command: OT_FAULT_LIMIT (4F)
1953,15121939400.00,ACK
1954,15121950240.00,Start repeat
1955,15122162920.00,Address read: 5A
1956,15122183880.00,ACK
1957,15122425080.00,Data read: 20
1958,15122446080.00,ACK
1959,15122462960.00,Data read: EB
1960,15122483960.00,ACK
1961,15122495920.00,Data read: 1C
1962,15122495920.00,PEC OK: 1C
1963,15122516880.00,NACK
1964,15122530280.00,Stop
1965,15154887680.00,Start
1966,15154891280.00,Address write: 5A
1967,15154912240.00,ACK
1968,15154924520.00,Command: OT_FAULT_RESPONSE (50)
1969,15154945400.00,ACK
1970,15154956240.00,Start repeat
1971,15155171880.00,Address read: 5A
1972,15155192800.00,ACK
1973,15155430440.00,Data read: 00
1974,15155451440.00,ACK
1975,15155467720.00,PEC OK: EA
1976,15155467720.00,Data read: EA
1977,15155488720.00,NACK
1978,15155502120.00,Stop
1979,15185877160.00,Start
1980,15185880800.00,Address write: 5A
1981,15185901720.00,ACK
1982,15185914000.00,Command: OT_WARN_LIMIT (51)
1983,15185934920.00,ACK
1984,15185945760.00,Start repeat
1985,15186164440.00,Address read: 5A
1986,15186185360.00,ACK
1987,15186430600.00,Data read: D0
1988,15186451600.00,ACK
1989,15186467920.00,Data read: EA
1990,15186488920.00,ACK
1991,15186500840.00,Data read: AC
1992,15186500840.00,PEC OK: AC
1993,15186521840.00,NACK
1994,15186535240.00,Stop
1995,15217876880.00,Start
1996,15217880520.00,Address write: 5A
1997,15217901440.00,ACK
1998,15217913720.00,Command: UT_WARN_LIMIT (52)
1999,15217934640.00,ACK
2000,15217945480.00,Start repeat
2001,15218167120.00,Address read: 5A
2002,15218188080.00,ACK
2003,15218435280.00,Data read: 00
2004,15218456280.00,ACK
2005,15218472560.00,Data read: 80
2006,15218493560.00,ACK
2007,15218505480.00,Data read: 3D
2008,15218505480.00,PEC OK: 3D
2009,15218526480.00,NACK
2010,15218539880.00,Stop
2011,15249880440.00,Start
2012,15249884080.00,Address write: 5A
2013,15249905000.00,ACK
2014,15249917280.00,Command: UT_FAULT_LIMIT (53)
2015,15249938240.00,ACK
2016,15249949040.00,Start repeat
2017,15250173720.00,Address read: 5A
2018,15250194640.00,ACK
2019,15250448280.00,Data read: 80
2020,15250469280.00,ACK
2021,15250481200.00,Data read: D5
2022,15250502160.00,ACK
2023,15250514080.00,Data read: 31
2024,15250514080.00,PEC OK: 31
2025,15250535080.00,NACK
2026,15250548440.00,Stop
2027,15280877280.00,Start
2028,15280880880.00,Address write: 5A
2029,15280901840.00,ACK
2030,15280914120.00,Command: UT_FAULT_RESPONSE (54)
2031,15280935040.00,ACK
2032,15280946080.00,Start repeat
2033,15281173680.00,Address read: 5A
2034,15281194600.00,ACK
2035,15281444800.00,Data read: 00
2036,15281465800.00,ACK
2037,15281477720.00,Data read: 41
2038,15281477720.00,PEC OK: 41
2039,15281498720.00,NACK
2040,15281512120.00,Stop
2041,15312884040.00,Start
2042,15312887640.00,Address write: 5A
2043,15312908600.00,ACK
2044,15312920880.00,Command: VIN_OV_FAULT_LIMIT (55)
2045,15312941800.00,ACK
2046,15312952640.00,Start repeat
2047,15313183280.00,Address read: 5A
2048,15313204240.00,ACK
2049,15313461840.00,Data read: 10
2050,15313482840.00,ACK
2051,15313494760.00,Data read: FA
2052,15313515760.00,ACK
2053,15313527680.00,Data read: 69
2054,15313527680.00,PEC OK: 69
2055,15313548720.00,NACK
2056,15313562080.00,Stop
2057,15345882000.00,Start
2058,15345885600.00,Address write: 5A
2059,15345906520.00,ACK
2060,15345918840.00,Command: VIN_OV_FAULT_RESPONSE (56)
2061,15345939760.00,ACK
2062,15345950600.00,Start repeat
2063,15346184200.00,Address read: 5A
2064,15346205120.00,ACK
2065,15346459160.00,Data read: 00
2066,15346480160.00,ACK
2067,15346492080.00,Data read: 97
2068,15346492080.00,PEC OK: 97
2069,15346513080.00,NACK
2070,15346526480.00,Stop
2071,15376880400.00,Start
2072,15376884000.00,Address write: 5A
2073,15376904920.00,ACK
2074,15376940160.00,Command: VIN_OV_WARN_LIMIT (57)
2075,15376961120.00,ACK
2076,15376971960.00,Start repeat
2077,15377208600.00,Address read: 5A
2078,15377229560.00,ACK
2079,15377486960.00,Data read: E8
2080,15377507960.00,ACK
2081,15377519880.00,Data read: F3
2082,15377540880.00,ACK
2083,15377552800.00,PEC OK: C6
2084,15377552800.00,Data read: C6
2085,15377573800.00,NACK
2086,15377587200.00,Stop
2087,15406882520.00,Start
2088,15406886120.00,Address write: 5A
2089,15406907080.00,ACK
2090,15406919360.00,Command: VIN_UV_WARN_LIMIT (58)
2091,15406940280.00,ACK
2092,15406951120.00,Start repeat
2093,15407190720.00,Address read: 5A
2094,15407211680.00,ACK
2095,15407470840.00,Data read: D0
2096,15407491840.00,ACK
2097,15407503760.00,Data read: F2
2098,15407524760.00,ACK
2099,15407536680.00,Data read: 42
2100,15407536680.00,PEC OK: 42
2101,15407557680.00,NACK
2102,15407571080.00,Stop
2103,15439888240.00,Start
2104,15439891840.00,Address write: 5A
2105,15439912800.00,ACK
2106,15439925080.00,Command: VIN_UV_FAULT_LIMIT (59)
2107,15439946040.00,ACK
2108,15439956840.00,Start repeat
2109,15440199480.00,Address read: 5A
2110,15440220440.00,ACK
2111,15440481640.00,Data read: A8
2112,15440502680.00,ACK
2113,15440514600.00,Data read: F2
2114,15440535560.00,ACK
2115,15440547480.00,Data read: 5E
2116,15440547480.00,PEC OK: 5E
2117,15440568480.00,NACK
2118,15440581880.00,Stop
2119,15470882880.00,Start
2120,15470886480.00,Address write: 5A
2121,15470907400.00,ACK
2122,15470919720.00,Command: VIN_UV_FAULT_RESPONSE (5A)
2123,15470940640.00,ACK
2124,15470951480.00,Start repeat
2125,15471197040.00,Address read: 5A
2126,15471217960.00,ACK
2127,15471475520.00,Data read: 00
2128,15471496520.00,ACK
2129,15471508440.00,Data read: 6D
2130,15471508440.00,PEC OK: 6D
2131,15471529440.00,NACK
2132,15471542840.00,Stop
2133,15502878720.00,Start
2134,15502882360.00,Address write: 5A
2135,15502903280.00,ACK
2136,15502915560.00,Command: IIN_OC_FAULT_LIMIT (5B)
2137,15502936520.00,ACK
2138,15502947360.00,Start repeat
2139,15503195960.00,Address read: 5A
2140,15503216920.00,ACK
2141,15503482280.00,Data read: 00
2142,15503503280.00,ACK
2143,15503515200.00,Data read: C3
2144,15503536200.00,ACK
2145,15503548160.00,Data read: 55
2146,15503548160.00,PEC OK: 55
2147,15503569120.00,NACK
2148,15503582560.00,Stop
2149,15534880280.00,Start
2150,15534883880.00,Address write: 5A
2151,15534904840.00,ACK
2152,15534917120.00,Command: IIN_OC_FAULT_RESPONSE (5C)
2153,15534938080.00,ACK
2154,15534948880.00,Start repeat
2155,15535200440.00,Address read: 5A
2156,15535221360.00,ACK
2157,15535482960.00,Data read: 00
2158,15535503960.00,ACK
2159,15535515920.00,Data read: 10
2160,15535515920.00,PEC OK: 10
2161,15535536880.00,NACK
2162,15535550280.00,Stop
2163,15565889360.00,Start
2164,15565893000.00,Address write: 5A
2165,15565913920.00,ACK
2166,15565926240.00,Command: IIN_OC_WARN_LIMIT (5D)
2167,15565947200.00,ACK
2168,15565958040.00,Start repeat
2169,15566212640.00,Address read: 5A
2170,15566233560.00,ACK
2171,15566502760.00,Data read: 80
2172,15566523760.00,ACK
2173,15566553360.00,Data read: C2
2174,15566574360.00,ACK
2175,15566586280.00,Data read: 90
2176,15566586280.00,PEC OK: 90
2177,15566607280.00,NACK
2178,15566620680.00,Stop
2179,15596890840.00,Start
2180,15596894480.00,Address write: 5A
2181,15596915400.00,ACK
2182,15596927720.00,Command: POWER_GOOD_ON (5E)
2183,15596948680.00,ACK
2184,15596959480.00,Start repeat
2185,15597217080.00,Address read: 5A
2186,15597238040.00,ACK
2187,15597509160.00,Data read: 00
2188,15597530160.00,ACK
2189,15597548440.00,Data read: 16
2190,15597569440.00,ACK
2191,15597581360.00,Data read: 3E
2192,15597581360.00,PEC OK: 3E
2193,15597602360.00,NACK
2194,15597615760.00,Stop
2195,15627885280.00,Start
2196,15627888920.00,Address write: 5A
2197,15627909840.00,ACK
2198,15627922120.00,Command: POWER_GOOD_OFF (5F)
2199,15627943120.00,ACK
2200,15627953920.00,Start repeat
2201,15628214560.00,Address read: 5A
2202,15628235480.00,ACK
2203,15628508640.00,Data read: 00
2204,15628529640.00,ACK
2205,15628545920.00,Data read: 14
2206,15628566960.00,ACK
2207,15628578880.00,PEC OK: 26
2208,15628578880.00,Data read: 26
2209,15628599840.00,NACK
2210,15628613280.00,Stop
2211,15659883280.00,Start
2212,15659886920.00,Address write: 5A
2213,15659907840.00,ACK
2214,15659920120.00,Command: TON_DELAY (60)
2215,15659941040.00,ACK
2216,15659951840.00,Start repeat
2217,15660215400.00,Address read: 5A
2218,15660236360.00,ACK
2219,15660511480.00,Data read: 20
2220,15660532520.00,ACK
2221,15660548800.00,Data read: EB
2222,15660569760.00,ACK
2223,15660581720.00,Data read: 00
2224,15660581720.00,PEC OK: 00
2225,15660602720.00,NACK
2226,15660616120.00,Stop
2227,15690888720.00,Start
2228,15690892320.00,Address write: 5A
2229,15690913280.00,ACK
2230,15690925560.00,Command: TON_RISE (61)
2231,15690946480.00,ACK
2232,15690957320.00,Start repeat
2233,15691223920.00,Address read: 5A
2234,15691244840.00,ACK
2235,15691522040.00,Data read: 20
2236,15691543040.00,ACK
2237,15691559320.00,Data read: F3
2238,15691580320.00,ACK
2239,15691592240.00,Data read: 5E
2240,15691592240.00,PEC OK: 5E
2241,15691613240.00,NACK
2242,15691626680.00,Stop
2243,15723889440.00,Start
2244,15723893040.00,Address write: 5A
2245,15723913960.00,ACK
2246,15723926280.00,Command: TON_MAX_FAULT_LIMIT (62)
2247,15723947200.00,ACK
2248,15723958000.00,Start repeat
2249,15724227600.00,Address read: 5A
2250,15724248560.00,ACK
2251,15724532080.00,Data read: E8
2252,15724553080.00,ACK
2253,15724565000.00,Data read: FB
2254,15724586040.00,ACK
2255,15724598160.00,Data read: 19
2256,15724598160.00,PEC OK: 19
2257,15724619160.00,NACK
2258,15724632560.00,Stop
2259,15754891240.00,Start
2260,15754894840.00,Address write: 5A
2261,15754915760.00,ACK
2262,15754928080.00,Command: TON_MAX_FAULT_RESPONSE (63)
2263,15754949040.00,ACK
2264,15754959840.00,Start repeat
2265,15755232320.00,Address read: 5A
2266,15755253280.00,ACK
2267,15755533160.00,Data read: 00
2268,15755554160.00,ACK
2269,15755566120.00,Data read: B6
2270,15755566120.00,PEC OK: B6
2271,15755587080.00,NACK
2272,15755600520.00,Stop
2273,15785891560.00,Start
2274,15785895160.00,Address write: 5A
2275,15785916080.00,ACK
2276,15785928400.00,Command: TOFF_DELAY (64)
2277,15785949320.00,ACK
2278,15785960160.00,Start repeat
2279,15786235720.00,Address read: 5A
2280,15786256640.00,ACK
2281,15786546400.00,Data read: 20
2282,15786567400.00,ACK
2283,15786579320.00,Data read: EB
2284,15786600320.00,ACK
2285,15786612240.00,Data read: 58
2286,15786612240.00,PEC OK: 58
2287,15786633240.00,NACK
2288,15786646640.00,Stop
2289,15818886760.00,Start
2290,15818890400.00,Address write: 5A
2291,15818911320.00,ACK
2292,15818923600.00,Command: TOFF_FALL (65)
2293,15818944560.00,ACK
2294,15818955360.00,Start repeat
2295,15819233920.00,Address read: 5A
2296,15819254880.00,ACK
2297,15819544400.00,Data read: 20
2298,15819565400.00,ACK
2299,15819577320.00,Data read: F3
2300,15819598320.00,ACK
2301,15819610240.00,PEC OK: 06
2302,15819610240.00,Data read: 06
2303,15819631240.00,NACK
2304,15819644640.00,Stop
2305,15850882560.00,Start
2306,15850886160.00,Address write: 5A
2307,15850907080.00,ACK
2308,15850919400.00,Command: TOFF_MAX_WARN_LIMIT (66)
2309,15850940320.00,ACK
2310,15850964520.00,Start repeat
2311,15851246120.00,Address read: 5A
2312,15851267040.00,ACK
2313,15851554200.00,Data read: E8
2314,15851575200.00,ACK
2315,15851587120.00,Data read: FB
2316,15851608120.00,ACK
2317,15851620040.00,Data read: 41
2318,15851620040.00,PEC OK: 41
2319,15851641040.00,NACK
2320,15851654440.00,Stop
2321,15881885880.00,Start
2322,15881889520.00,Address write: 5A
2323,15881910440.00,ACK
2324,15881922720.00,Command: POUT_OP_FAULT_LIMIT (68)
2325,15881943680.00,ACK
2326,15881954520.00,Start repeat
2327,15882239040.00,Address read: 5A
2328,15882260000.00,ACK
2329,15882549280.00,Data read: 80
2330,15882570280.00,ACK
2331,15882582240.00,Data read: FA
2332,15882603240.00,ACK
2333,15882615160.00,Data read: DF
2334,15882615160.00,PEC OK: DF
2335,15882636160.00,NACK
2336,15882649560.00,Stop
2337,15913886640.00,Start
2338,15913890240.00,Address write: 5A
2339,15913911200.00,ACK
2340,15913923480.00,Command: POUT_OP_FAULT_RESPONSE (69)
2341,15913944440.00,ACK
2342,15913955240.00,Start repeat
2343,15914242760.00,Address read: 5A
2344,15914263680.00,ACK
2345,15914549240.00,Data read: 00
2346,15914570280.00,ACK
2347,15914582200.00,Data read: 31
2348,15914582200.00,PEC OK: 31
2349,15914603200.00,NACK
2350,15914616600.00,Stop
2351,15944893080.00,Start
2352,15944896680.00,Address write: 5A
2353,15944917600.00,ACK
2354,15944929920.00,Command: POUT_OP_WARN_LIMIT (6A)
2355,15944950840.00,ACK
2356,15944961680.00,Start repeat
2357,15945252200.00,Address read: 5A
2358,15945273120.00,ACK
2359,15945566280.00,Data read: 58
2360,15945587280.00,ACK
2361,15945599160.00,Data read: FA
2362,15945620160.00,ACK
2363,15945632080.00,Data read: E1
2364,15945632080.00,PEC OK: E1
2365,15945653120.00,NACK
2366,15945666480.00,Stop
2367,15976885440.00,Start
2368,15976889040.00,Address write: 5A
2369,15976909960.00,ACK
2370,15976922280.00,Command: PIN_OP_WARN_LIMIT (6B)
2371,15976943240.00,ACK
2372,15976954280.00,Start repeat
2373,15977247800.00,Address read: 5A
2374,15977268720.00,ACK
2375,15977563800.00,Data read: 94
2376,15977584800.00,ACK
2377,15977596720.00,Data read: FA
2378,15977617720.00,ACK
2379,15977629680.00,Data read: E6
2380,15977629680.00,PEC OK: E6
2381,15977650680.00,NACK
2382,15977664080.00,Stop
2383,16008891680.00,Start
2384,16008895320.00,Address write: 5A
2385,16008916240.00,ACK
2386,16008928560.00,Command: STATUS_BYTE (78)
2387,16008949480.00,ACK
2388,16008960320.00,Start repeat
2389,16009256760.00,Address read: 5A
2390,16009277720.00,ACK
2391,16009569160.00,Data read: 80
2392,16009590160.00,ACK
2393,16009602080.00,Data read: 71
2394,16009602080.00,PEC OK: 71
2395,16009623080.00,NACK
2396,16009640840.00,Stop
2397,16039885600.00,Start
2398,16039889200.00,Address write: 5A
2399,16039910160.00,ACK
2400,16039922440.00,Command: STATUS_WORD (79)
2401,16039943400.00,ACK
2402,16039954240.00,Start repeat
2403,16040253760.00,Address read: 5A
2404,16040274680.00,ACK
2405,16040573840.00,Data read: 80
2406,16040594840.00,ACK
2407,16040611120.00,Data read: 00
2408,16040632160.00,ACK
2409,16040644080.00,PEC OK: 46
2410,16040644080.00,Data read: 46
2411,16040665080.00,NACK
2412,16040678480.00,Stop
2413,16071891160.00,Start
2414,16071894800.00,Address write: 5A
2415,16071915720.00,ACK
2416,16071928040.00,Command: STATUS_VOUT (7A)
2417,16071949000.00,ACK
2418,16071959840.00,Start repeat
2419,16072262280.00,Address read: 5A
2420,16072283200.00,ACK
2421,16072578720.00,Data read: 00
2422,16072599720.00,ACK
2423,16072616000.00,PEC OK: 2E
2424,16072616000.00,Data read: 2E
2425,16072637000.00,NACK
2426,16072650440.00,Stop
2427,16103885360.00,Start
2428,16103888960.00,Address write: 5A
2429,16103909920.00,ACK
2430,16103922200.00,Command: STATUS_IOUT (7B)
2431,16103943160.00,ACK
2432,16103954000.00,Start repeat
2433,16104259440.00,Address read: 5A
2434,16104280400.00,ACK
2435,16104577880.00,Data read: 00
2436,16104598880.00,ACK
2437,16104615160.00,Data read: 45
2438,16104615160.00,PEC OK: 45
2439,16104636160.00,NACK
2440,16104649560.00,Stop
2441,16134894240.00,Start
2442,16134897880.00,Address write: 5A
2443,16134918800.00,ACK
2444,16134931080.00,Command: STATUS_INPUT (7C)
2445,16134952080.00,ACK
2446,16134962880.00,Start repeat
2447,16135271320.00,Address read: 5A
2448,16135292240.00,ACK
2449,16135591720.00,Data read: 00
2450,16135612760.00,ACK
2451,16135631200.00,Data read: 53
2452,16135631200.00,PEC OK: 53
2453,16135652200.00,NACK
2454,16135665600.00,Stop
2455,16165883560.00,Start
2456,16165887160.00,Address write: 5A
2457,16165908080.00,ACK
2458,16165920400.00,Command: STATUS_TEMPERATURE (7D)
2459,16165941360.00,ACK
2460,16165952200.00,Start repeat
2461,16166263640.00,Address read: 5A
2462,16166284560.00,ACK
2463,16166605160.00,Data read: 00
2464,16166626160.00,ACK
2465,16166638080.00,Data read: 38
2466,16166638080.00,PEC OK: 38
2467,16166659080.00,NACK
2468,16166672480.00,Stop
2469,16197892480.00,Start
2470,16197896120.00,Address write: 5A
2471,16197917040.00,ACK
2472,16197929320.00,Command: STATUS_CML (7E)
2473,16197950320.00,ACK
2474,16197961120.00,Start repeat
2475,16198275560.00,Address read: 5A
2476,16198296480.00,ACK
2477,16198604400.00,Data read: 00
2478,16198625400.00,ACK
2479,16198637320.00,Data read: 85
2480,16198637320.00,PEC OK: 85
2481,16198658320.00,NACK
2482,16198671920.00,Stop
2483,16228884840.00,Start
2484,16228888480.00,Address write: 5A
2485,16228909400.00,ACK
2486,16228921720.00,Command: STATUS_OTHER (7F)
2487,16228942720.00,ACK
2488,16228953560.00,Start repeat
2489,16229270920.00,Address read: 5A
2490,16229291880.00,ACK
2491,16229601680.00,Data read: 00
2492,16229622680.00,ACK
2493,16229634600.00,Data read: EE
2494,16229634600.00,PEC OK: EE
2495,16229655600.00,NACK
2496,16229669000.00,Stop
2497,16260894520.00,Start
2498,16260898120.00,Address write: 5A
2499,16260919040.00,ACK
2500,16260931360.00,Command: STATUS_MFR_SPECIFIC (80)
2501,16260952200.00,ACK
2502,16260963040.00,Start repeat
2503,16261283440.00,Address read: 5A
2504,16261304360.00,ACK
2505,16261616280.00,Data read: 00
2506,16261637280.00,ACK
2507,16261649200.00,Data read: C5
2508,16261649200.00,PEC OK: C5
2509,16261670200.00,NACK
2510,16261683600.00,Stop
2511,16291891080.00,Start
2512,16291894680.00,Address write: 5A
2513,16291915600.00,ACK
2514,16291927920.00,Command: STATUS_FANS_1_2 (81)
2515,16291948760.00,ACK
2516,16291959600.00,Start repeat
2517,16292283000.00,Address read: 5A
2518,16292303960.00,ACK
2519,16292618040.00,Data read: 00
2520,16292639040.00,ACK
2521,16292650960.00,Data read: AE
2522,16292650960.00,PEC OK: AE
2523,16292671960.00,NACK
2524,16292685360.00,Stop
2525,16322889280.00,Start
2526,16322892880.00,Address write: 5A
2527,16322913840.00,ACK
2528,16322926120.00,Command: STATUS_FANS_3_4 (82)
2529,16322947040.00,ACK
2530,16322957840.00,Start repeat
2531,16323309520.00,Address read: 5A
2532,16323330480.00,ACK
2533,16323641600.00,Data read: 00
2534,16323662600.00,ACK
2535,16323674520.00,Data read: 13
2536,16323674520.00,PEC OK: 13
2537,16323695520.00,NACK
2538,16323708920.00,Stop
2539,16354890480.00,Start
2540,16354894120.00,Address write: 5A
2541,16354915040.00,ACK
2542,16354927320.00,Command: READ_KWH_IN (83)
2543,16354948240.00,ACK
2544,16354959040.00,Start repeat
2545,16355288480.00,Address read: 5A
2546,16355309440.00,ACK
2547,16355637680.00,Data read: 00
2548,16355658680.00,ACK
2549,16355670600.00,Data read: 00
2550,16355691600.00,ACK
2551,16355703520.00,Data read: 00
2552,16355724520.00,ACK
2553,16355736440.00,Data read: 00
2554,16355757440.00,ACK
2555,16355769360.00,Data read: 36
2556,16355769360.00,PEC OK: 36
2557,16355790360.00,NACK
2558,16355803760.00,Stop
2559,16385887760.00,Start
2560,16385891400.00,Address write: 5A
2561,16385912320.00,ACK
2562,16385924600.00,Command: READ_KWH_OUT (84)
2563,16385945520.00,ACK
2564,16385956320.00,Start repeat
2565,16386288760.00,Address read: 5A
2566,16386309720.00,ACK
2567,16386640320.00,Data read: 00
2568,16386661320.00,ACK
2569,16386673240.00,Data read: 00
2570,16386694240.00,ACK
2571,16386706160.00,Data read: 00
2572,16386727160.00,ACK
2573,16386739120.00,Data read: 00
2574,16386760120.00,ACK
2575,16386772000.00,Data read: E9
2576,16386772000.00,PEC OK: E9
2577,16386793040.00,NACK
2578,16386806400.00,Stop
2579,16417896920.00,Start
2580,16417900520.00,Address write: 5A
2581,16417921480.00,ACK
2582,16417933760.00,Command: READ_KWH_CONFIG (85)
2583,16417954680.00,ACK
2584,16417965480.00,Start repeat
2585,16418300960.00,Address read: 5A
2586,16418321880.00,ACK
2587,16418644600.00,Data read: 00
2588,16418665600.00,ACK
2589,16418677520.00,Data read: 00
2590,16418698520.00,ACK
2591,16418710440.00,Data read: 1B
2592,16418710440.00,PEC OK: 1B
2593,16418731440.00,NACK
2594,16418744840.00,Stop
2595,16464886320.00,Start
2596,16464890160.00,Address write: 5A
2597,16464911120.00,ACK
2598,16464923640.00,Command: READ_EIN (86)
2599,16464944520.00,ACK
2600,16464955360.00,Start repeat
2601,16465293760.00,Address read: 5A
2602,16465314720.00,ACK
2603,16465668840.00,Data read: 06
2604,16465689840.00,ACK
2605,16465706160.00,Data read: B8
2606,16465727120.00,ACK
2607,16465739040.00,Data read: 54
2608,16465760040.00,ACK
2609,16465771960.00,Data read: 29
2610,16465793000.00,ACK
2611,16465804920.00,Data read: 56
2612,16465825920.00,ACK
2613,16465837840.00,Data read: 26
2614,16465858840.00,ACK
2615,16465870760.00,Data read: 00
2616,16465891760.00,ACK
2617,16465903680.00,PEC OK: 58
2618,16465903680.00,Data read: 58
2619,16465924680.00,NACK
2620,16465938080.00,Stop
2621,16496885520.00,Start
2622,16496889360.00,Address write: 5A
2623,16496910280.00,ACK
2624,16496922600.00,Command: READ_EOUT (87)
2625,16496943520.00,ACK
2626,16496954320.00,Start repeat
2627,16497295720.00,Address read: 5A
2628,16497316680.00,ACK
2629,16497672800.00,Data read: 06
2630,16497693800.00,ACK
2631,16497710120.00,Data read: 0C
2632,16497731120.00,ACK
2633,16497743000.00,Data read: 42
2634,16497764000.00,ACK
2635,16497775960.00,Data read: 21
2636,16497796960.00,ACK
2637,16497808880.00,Data read: 5A
2638,16497829880.00,ACK
2639,16497841800.00,Data read: 26
2640,16497862800.00,ACK
2641,16497874720.00,Data read: 00
2642,16497895720.00,ACK
2643,16497907680.00,Data read: FF
2644,16497907680.00,PEC OK: FF
2645,16497928640.00,NACK
2646,16497942040.00,Stop
2647,16527893480.00,Start
2648,16527897120.00,Address write: 5A
2649,16527918040.00,ACK
2650,16527930320.00,Command: READ_VIN (88)
2651,16527951200.00,ACK
2652,16527962040.00,Start repeat
2653,16528306440.00,Address read: 5A
2654,16528327360.00,ACK
2655,16528656400.00,Data read: 98
2656,16528677400.00,ACK
2657,16528693680.00,Data read: F3
2658,16528714680.00,ACK
2659,16528726600.00,Data read: 7B
2660,16528726600.00,PEC OK: 7B
2661,16528747600.00,NACK
2662,16528761000.00,Stop
2663,16558893160.00,Start
2664,16558896760.00,Address write: 5A
2665,16558917720.00,ACK
2666,16558930000.00,Command: READ_IIN (89)
2667,16558950920.00,ACK
2668,16558961720.00,Start repeat
2669,16559309160.00,Address read: 5A
2670,16559330080.00,ACK
2671,16559661160.00,Data read: 80
2672,16559682200.00,ACK
2673,16559698480.00,Data read: BA
2674,16559719480.00,ACK
2675,16559731400.00,Data read: 6A
2676,16559731400.00,PEC OK: 6A
2677,16559752400.00,NACK
2678,16559765800.00,Stop
2679,16591896840.00,Start
2680,16591900440.00,Address write: 5A
2681,16591921400.00,ACK
2682,16591933680.00,Command: READ_VCAP (8A)
2683,16591954560.00,ACK
2684,16591965400.00,Start repeat
2685,16592315800.00,Address read: 5A
2686,16592336720.00,ACK
2687,16592669760.00,Data read: 98
2688,16592690760.00,ACK
2689,16592707040.00,Data read: F3
2690,16592728040.00,ACK
2691,16592740320.00,PEC OK: 57
2692,16592740320.00,Data read: 57
2693,16592761320.00,NACK
2694,16592774720.00,Stop
2695,16621887840.00,Start
2696,16621891480.00,Address write: 5A
2697,16621912400.00,ACK
2698,16621924680.00,Command: READ_VOUT (8B)
2699,16621945600.00,ACK
2700,16621956440.00,Start repeat
2701,16622309800.00,Address read: 5A
2702,16622330720.00,ACK
2703,16622688600.00,Data read: 00
2704,16622709600.00,ACK
2705,16622721520.00,Data read: 18
2706,16622742520.00,ACK
2707,16622755160.00,Data read: 97
2708,16622755160.00,PEC OK: 97
2709,16622776160.00,NACK
2710,16622789560.00,Stop
2711,16655890240.00,Start
2712,16655893840.00,Address write: 5A
2713,16655914800.00,ACK
2714,16655927280.00,Command: READ_IOUT (8C)
2715,16655948200.00,ACK
2716,16655959040.00,Start repeat
2717,16656315400.00,Address read: 5A
2718,16656336320.00,ACK
2719,16656677800.00,Data read: 50
2720,16656698800.00,ACK
2721,16656710720.00,Data read: DA
2722,16656731680.00,ACK
2723,16656743600.00,Data read: B9
2724,16656743600.00,PEC OK: B9
2725,16656764600.00,NACK
2726,16656778000.00,Stop
2727,16701892000.00,Start
2728,16701895600.00,Address write: 5A
2729,16701916560.00,ACK
2730,16701928840.00,Command: READ_TEMPERATURE_1 (8D)
2731,16701949760.00,ACK
2732,16701960600.00,Start repeat
2733,16702319960.00,Address read: 5A
2734,16702340880.00,ACK
2735,16702684320.00,Data read: 30
2736,16702705320.00,ACK
2737,16702717240.00,Data read: E2
2738,16702738240.00,ACK
2739,16702750160.00,Data read: F2
2740,16702750160.00,PEC OK: F2
2741,16702771160.00,NACK
2742,16702784560.00,Stop
2743,16733899160.00,Start
2744,16733902760.00,Address write: 5A
2745,16733923720.00,ACK
2746,16733936000.00,Command: READ_TEMPERATURE_2 (8E)
2747,16733956920.00,ACK
2748,16733967760.00,Start repeat
2749,16734330120.00,Address read: 5A
2750,16734351040.00,ACK
2751,16734698480.00,Data read: B0
2752,16734719480.00,ACK
2753,16734731400.00,Data read: E2
2754,16734752440.00,ACK
2755,16734764360.00,Data read: 7E
2756,16734764360.00,PEC OK: 7E
2757,16734785360.00,NACK
2758,16734798720.00,Stop
2759,16766903320.00,Start
2760,16766906960.00,Address write: 5A
2761,16766927880.00,ACK
2762,16766940200.00,Command: READ_TEMPERATURE_3 (8F)
2763,16766961120.00,ACK
2764,16766971920.00,Start repeat
2765,16767337320.00,Address read: 5A
2766,16767358240.00,ACK
2767,16767705680.00,Data read: 20
2768,16767726680.00,ACK
2769,16767738600.00,Data read: E3
2770,16767759600.00,ACK
2771,16767771520.00,Data read: 8E
2772,16767771520.00,PEC OK: 8E
2773,16767792520.00,NACK
2774,16767805920.00,Stop
2775,16811907680.00,Start
2776,16811911280.00,Address write: 5A
2777,16811932240.00,ACK
2778,16811944520.00,Command: READ_FAN_SPEED_1 (90)
2779,16811965400.00,ACK
2780,16811980680.00,Start repeat
2781,16812349080.00,Address read: 5A
2782,16812370000.00,ACK
2783,16812715040.00,Data read: EE
2784,16812736040.00,ACK
2785,16812747960.00,Data read: 22
2786,16812768960.00,ACK
2787,16812780920.00,Data read: 49
2788,16812780920.00,PEC OK: 49
2789,16812801920.00,NACK
2790,16812815320.00,Stop
2791,16844905640.00,Start
2792,16844909240.00,Address write: 5A
2793,16844930200.00,ACK
2794,16844942480.00,Command: READ_FAN_SPEED_2 (91)
2795,16844963360.00,ACK
2796,16844974200.00,Start repeat
2797,16845345560.00,Address read: 5A
2798,16845366520.00,ACK
2799,16845713720.00,Data read: E2
2800,16845734720.00,ACK
2801,16845746640.00,Data read: 22
2802,16845767640.00,ACK
2803,16845779560.00,Data read: A3
2804,16845779560.00,PEC OK: A3
2805,16845800560.00,NACK
2806,16845813960.00,Stop
2807,16875899240.00,Start
2808,16875902880.00,Address write: 5A
2809,16875923760.00,ACK
2810,16875936080.00,Command: READ_FAN_SPEED_3 (92)
2811,16875956960.00,ACK
2812,16875967800.00,Start repeat
2813,16876342120.00,Address read: 5A
2814,16876363080.00,ACK
2815,16876711760.00,Data read: 00
2816,16876732760.00,ACK
2817,16876744680.00,Data read: 00
2818,16876765680.00,ACK
2819,16876777600.00,Data read: 1E
2820,16876777600.00,PEC OK: 1E
2821,16876798600.00,NACK
2822,16876811960.00,Stop
2823,16905903680.00,Start
2824,16905907320.00,Address write: 5A
2825,16905928240.00,ACK
2826,16905940520.00,Command: READ_FAN_SPEED_4 (93)
2827,16905961440.00,ACK
2828,16905972480.00,Start repeat
2829,16906349840.00,Address read: 5A
2830,16906370760.00,ACK
2831,16906721440.00,Data read: 00
2832,16906742440.00,ACK
2833,16906776320.00,Data read: 00
2834,16906797320.00,ACK
2835,16906809240.00,Data read: 08
2836,16906809240.00,PEC OK: 08
2837,16906830240.00,NACK
2838,16906843640.00,Stop
2839,16938896600.00,Start
2840,16938900240.00,Address write: 5A
2841,16938921160.00,ACK
2842,16938933440.00,Command: READ_DUTY_CYCLE (94)
2843,16938954360.00,ACK
2844,16938965160.00,Start repeat
2845,16939345520.00,Address read: 5A
2846,16939366440.00,ACK
2847,16939719360.00,Data read: 00
2848,16939740360.00,ACK
2849,16939756640.00,Data read: 00
2850,16939777640.00,ACK
2851,16939789560.00,Data read: 6A
2852,16939789560.00,PEC OK: 6A
2853,16939810560.00,NACK
2854,16939823960.00,Stop
2855,16968892560.00,Start
2856,16968896200.00,Address write: 5A
2857,16968917080.00,ACK
2858,16968929400.00,Command: READ_FREQUENCY (95)
2859,16968950280.00,ACK
2860,16968961120.00,Start repeat
2861,16969344480.00,Address read: 5A
2862,16969365400.00,ACK
2863,16969720440.00,Data read: 0D
2864,16969741440.00,ACK
2865,16969757720.00,Data read: 3B
2866,16969778720.00,ACK
2867,16969790640.00,PEC OK: 34
2868,16969790640.00,Data read: 34
2869,16969811640.00,NACK
2870,16969825040.00,Stop
2871,17000896840.00,Start
2872,17000900480.00,Address write: 5A
2873,17000921400.00,ACK
2874,17000933680.00,Command: READ_POUT (96)
2875,17000954640.00,ACK
2876,17000965440.00,Start repeat
2877,17001351720.00,Address read: 5A
2878,17001372680.00,ACK
2879,17001729640.00,Data read: 78
2880,17001750640.00,ACK
2881,17001766920.00,Data read: F3
2882,17001787920.00,ACK
2883,17001799840.00,Data read: 9B
2884,17001799840.00,PEC OK: 9B
2885,17001820840.00,NACK
2886,17001834240.00,Stop
2887,17032891960.00,Start
2888,17032895560.00,Address write: 5A
2889,17032916520.00,ACK
2890,17032928800.00,Command: READ_PIN (97)
2891,17032949760.00,ACK
2892,17032960560.00,Start repeat
2893,17033349840.00,Address read: 5A
2894,17033370760.00,ACK
2895,17033729760.00,Data read: 28
2896,17033750760.00,ACK
2897,17033769040.00,Data read: FA
2898,17033790040.00,ACK
2899,17033801960.00,Data read: BE
2900,17033801960.00,PEC OK: BE
2901,17033822960.00,NACK
2902,17033836360.00,Stop
2903,17079894440.00,Start
2904,17079898040.00,Address write: 5A
2905,17079919000.00,ACK
2906,17079931280.00,Command: PMBUS_REVISION (98)
2907,17079952160.00,ACK
2908,17079963000.00,Start repeat
2909,17080355200.00,Address read: 5A
2910,17080376120.00,ACK
2911,17080753680.00,Data read: 33
2912,17080774640.00,ACK
2913,17080786600.00,Data read: AF
2914,17080786600.00,PEC OK: AF
2915,17080807560.00,NACK
2916,17080821000.00,Stop
2917,17110897440.00,Start
2918,17110901320.00,Address write: 5A
2919,17110922240.00,ACK
2920,17110934520.00,Command: MFR_ID (99)
2921,17110955440.00,ACK
2922,17110966240.00,Start repeat
2923,17111361560.00,Address read: 5A
2924,17111382520.00,ACK
2925,17111801320.00,Data read: 0A
2926,17111822280.00,ACK
2927,17111834200.00,Data read: 4D
2928,17111855240.00,ACK
2929,17111867160.00,Data read: 46
2930,17111888160.00,ACK
2931,17111900080.00,Data read: 52
2932,17111921080.00,ACK
2933,17111933000.00,Data read: 5F
2934,17111954000.00,ACK
2935,17111965880.00,Data read: 49
2936,17111986920.00,ACK
2937,17111998840.00,Data read: 44
2938,17112019840.00,ACK
2939,17112031960.00,Data read: 5F
2940,17112052960.00,ACK
2941,17112064880.00,Data read: 30
2942,17112085880.00,ACK
2943,17112097800.00,Data read: 30
2944,17112118800.00,ACK
2945,17112130720.00,Data read: 31
2946,17112151720.00,ACK
2947,17112163640.00,PEC OK: 0B
2948,17112163640.00,Data read: 0B
2949,17112184640.00,NACK
2950,17112198040.00,Stop
2951,17141896200.00,Start
2952,17141900040.00,Address write: 5A
2953,17141921000.00,ACK
2954,17141933280.00,Command: MFR_MODEL (9A)
2955,17141954200.00,ACK
2956,17141965040.00,Start repeat
2957,17142363280.00,Address read: 5A
2958,17142384240.00,ACK
2959,17142821800.00,Data read: 0D
2960,17142842760.00,ACK
2961,17142854720.00,Data read: 4D
2962,17142875720.00,ACK
2963,17142887640.00,Data read: 46
2964,17142908640.00,ACK
2965,17142920560.00,Data read: 52
2966,17142941560.00,ACK
2967,17142953480.00,Data read: 5F
2968,17142974480.00,ACK
2969,17142986400.00,Data read: 4D
2970,17143007400.00,ACK
2971,17143019320.00,Data read: 4F
2972,17143040320.00,ACK
2973,17143052240.00,Data read: 44
2974,17143073240.00,ACK
2975,17143085160.00,Data read: 45
2976,17143106160.00,ACK
2977,17143118080.00,Data read: 4C
2978,17143139080.00,ACK
2979,17143151000.00,Data read: 5F
2980,17143172000.00,ACK
2981,17143183920.00,Data read: 30
2982,17143204920.00,ACK
2983,17143216880.00,Data read: 30
2984,17143237880.00,ACK
2985,17143249800.00,Data read: 31
2986,17143270760.00,ACK
2987,17143290080.00,Data read: 06
2988,17143290080.00,PEC OK: 06
2989,17143311080.00,NACK
2990,17143324480.00,Stop
2991,17174895920.00,Start
2992,17174899760.00,Address write: 5A
2993,17174920720.00,ACK
2994,17174933000.00,Command: MFR_REVISION (9B)
2995,17174953960.00,ACK
2996,17174964760.00,Start repeat
2997,17175366080.00,Address read: 5A
2998,17175387000.00,ACK
2999,17175815360.00,Data read: 0B
3000,17175836360.00,ACK
3001,17175848280.00,Data read: 4D
3002,17175869280.00,ACK
3003,17175881200.00,Data read: 46
3004,17175902200.00,ACK
3005,17175914120.00,Data read: 52
3006,17175935120.00,ACK
3007,17175947040.00,Data read: 5F
3008,17175968040.00,ACK
3009,17175979960.00,Data read: 52
3010,17176000960.00,ACK
3011,17176012880.00,Data read: 45
3012,17176033880.00,ACK
3013,17176045800.00,Data read: 56
3014,17176066800.00,ACK
3015,17176078720.00,Data read: 5F
3016,17176099720.00,ACK
3017,17176111680.00,Data read: 30
3018,17176132680.00,ACK
3019,17176144560.00,Data read: 30
3020,17176165600.00,ACK
3021,17176177520.00,Data read: 31
3022,17176198520.00,ACK
3023,17176215640.00,Data read: A9
3024,17176215640.00,PEC OK: A9
3025,17176236640.00,NACK
3026,17176250040.00,Stop
3027,17220891120.00,Start
3028,17220895000.00,Address write: 5A
3029,17220915920.00,ACK
3030,17220928200.00,Command: MFR_LOCATION (9C)
3031,17220949120.00,ACK
3032,17220959920.00,Start repeat
3033,17221367200.00,Address read: 5A
3034,17221388160.00,ACK
3035,17221848160.00,Data read: 10
3036,17221869160.00,ACK
3037,17221881080.00,Data read: 4D
3038,17221902080.00,ACK
3039,17221914000.00,Data read: 46
3040,17221935040.00,ACK
3041,17221946960.00,Data read: 52
3042,17221967960.00,ACK
3043,17221979880.00,Data read: 5F
3044,17222000880.00,ACK
3045,17222012800.00,Data read: 4C
3046,17222033800.00,ACK
3047,17222045760.00,Data read: 4F
3048,17222066720.00,ACK
3049,17222078640.00,Data read: 43
3050,17222099640.00,ACK
3051,17222116800.00,Data read: 41
3052,17222137800.00,ACK
3053,17222149720.00,Data read: 54
3054,17222170720.00,ACK
3055,17222182640.00,Data read: 49
3056,17222203640.00,ACK
3057,17222215560.00,Data read: 4F
3058,17222236560.00,ACK
3059,17222248520.00,Data read: 4E
3060,17222269480.00,ACK
3061,17222281600.00,Data read: 5F
3062,17222302600.00,ACK
3063,17222314560.00,Data read: 30
3064,17222335560.00,ACK
3065,17222347480.00,Data read: 30
3066,17222368480.00,ACK
3067,17222380400.00,Data read: 31
3068,17222401400.00,ACK
3069,17222413320.00,Data read: A1
3070,17222413320.00,PEC OK: A1
3071,17222434320.00,NACK
3072,17222447720.00,Stop
3073,17252902120.00,Start
3074,17252906000.00,Address write: 5A
3075,17252926920.00,ACK
3076,17252939200.00,Command: MFR_DATE (9D)
3077,17252960160.00,ACK
3078,17252971000.00,Start repeat
3079,17253381240.00,Address read: 5A
3080,17253402200.00,ACK
3081,17253832600.00,Data read: 0A
3082,17253853600.00,ACK
3083,17253865520.00,Data read: 32
3084,17253886520.00,ACK
3085,17253898440.00,Data read: 30
3086,17253919480.00,ACK
3087,17253931400.00,Data read: 32
3088,17253952400.00,ACK
3089,17253964320.00,Data read: 36
3090,17253985320.00,ACK
3091,17253997240.00,Data read: 2D
3092,17254018240.00,ACK
3093,17254041560.00,Data read: 30
3094,17254062560.00,ACK
3095,17254074480.00,Data read: 36
3096,17254095480.00,ACK
3097,17254107400.00,Data read: 2D
3098,17254128360.00,ACK
3099,17254140280.00,Data read: 31
3100,17254161280.00,ACK
3101,17254173240.00,Data read: 34
3102,17254194240.00,ACK
3103,17254206160.00,Data read: 22
3104,17254206160.00,PEC OK: 22
3105,17254227160.00,NACK
3106,17254240560.00,Stop
3107,17284901920.00,Start
3108,17284905800.00,Address write: 5A
3109,17284926720.00,ACK
3110,17284939040.00,Command: MFR_SERIAL (9E)
3111,17284959960.00,ACK
3112,17284975200.00,Start repeat
3113,17285379440.00,Address read: 5A
3114,17285400360.00,ACK
3115,17285843080.00,Data read: 0E
3116,17285864080.00,ACK
3117,17285876000.00,Data read: 4D
3118,17285897000.00,ACK
3119,17285908960.00,Data read: 46
3120,17285929960.00,ACK
3121,17285941880.00,Data read: 52
3122,17285962880.00,ACK
3123,17285980000.00,Data read: 5F
3124,17286001000.00,ACK
3125,17286012920.00,Data read: 53
3126,17286033920.00,ACK
3127,17286045840.00,Data read: 45
3128,17286066840.00,ACK
3129,17286078760.00,Data read: 52
3130,17286099760.00,ACK
3131,17286111680.00,Data read: 49
3132,17286132680.00,ACK
3133,17286144600.00,Data read: 41
3134,17286165600.00,ACK
3135,17286177520.00,Data read: 4C
3136,17286198520.00,ACK
3137,17286210440.00,Data read: 5F
3138,17286231440.00,ACK
3139,17286243360.00,Data read: 30
3140,17286264360.00,ACK
3141,17286276320.00,Data read: 30
3142,17286297320.00,ACK
3143,17286309240.00,Data read: 31
3144,17286330240.00,ACK
3145,17286342160.00,Data read: FC
3146,17286342160.00,PEC OK: FC
3147,17286363160.00,NACK
3148,17286376560.00,Stop
3149,17316898840.00,Start
3150,17316902680.00,Address write: 5A
3151,17316923640.00,ACK
3152,17316935960.00,Command: APP_PROFILE_SUPPORT (9F)
3153,17316956880.00,ACK
3154,17316967720.00,Start repeat
3155,17317381000.00,Address read: 5A
3156,17317401920.00,ACK
3157,17317783200.00,Data read: 02
3158,17317804200.00,ACK
3159,17317816120.00,Data read: 01
3160,17317837120.00,ACK
3161,17317849040.00,Data read: 13
3162,17317870040.00,ACK
3163,17317905760.00,Data read: 14
3164,17317905760.00,PEC OK: 14
3165,17317926760.00,NACK
3166,17317940160.00,Stop
3167,17348898960.00,Start
3168,17348902600.00,Address write: 5A
3169,17348923520.00,ACK
3170,17348935800.00,Command: MFR_VIN_MIN (A0)
3171,17348956680.00,ACK
3172,17348967480.00,Start repeat
3173,17349383760.00,Address read: 5A
3174,17349404680.00,ACK
3175,17349781640.00,Data read: D0
3176,17349802640.00,ACK
3177,17349839000.00,Data read: F2
3178,17349860000.00,ACK
3179,17349871920.00,Data read: F1
3180,17349871920.00,PEC OK: F1
3181,17349892920.00,NACK
3182,17349906520.00,Stop
3183,17379896760.00,Start
3184,17379900360.00,Address write: 5A
3185,17379921280.00,ACK
3186,17379933600.00,Command: MFR_VIN_MAX (A1)
3187,17379954480.00,ACK
3188,17379965280.00,Start repeat
3189,17380384520.00,Address read: 5A
3190,17380405480.00,ACK
3191,17380784600.00,Data read: 10
3192,17380805600.00,ACK
3193,17380821880.00,Data read: FA
3194,17380842880.00,ACK
3195,17380854840.00,Data read: 32
3196,17380854840.00,PEC OK: 32
3197,17380875800.00,NACK
3198,17380889200.00,Stop
3199,17411902520.00,Start
3200,17411906160.00,Address write: 5A
3201,17411927080.00,ACK
3202,17411939400.00,Command: MFR_IIN_MAX (A2)
3203,17411960280.00,ACK
3204,17411971080.00,Start repeat
3205,17412393360.00,Address read: 5A
3206,17412414320.00,ACK
3207,17412795240.00,Data read: 00
3208,17412816240.00,ACK
3209,17412834480.00,Data read: C3
3210,17412855480.00,ACK
3211,17412867400.00,Data read: F0
3212,17412867400.00,PEC OK: F0
3213,17412888400.00,NACK
3214,17412901800.00,Stop
3215,17443901680.00,Start
3216,17443905280.00,Address write: 5A
3217,17443926240.00,ACK
3218,17443938520.00,Command: MFR_PIN_MAX (A3)
3219,17443959440.00,ACK
3220,17443970280.00,Start repeat
3221,17444395520.00,Address read: 5A
3222,17444416440.00,ACK
3223,17444799360.00,Data read: 94
3224,17444820360.00,ACK
3225,17444836680.00,Data read: FA
3226,17444857680.00,ACK
3227,17444869600.00,Data read: FC
3228,17444869600.00,PEC OK: FC
3229,17444890600.00,NACK
3230,17444903960.00,Stop
3231,17475904240.00,Start
3232,17475907880.00,Address write: 5A
3233,17475928800.00,ACK
3234,17475941120.00,Command: MFR_VOUT_MIN (A4)
3235,17475962000.00,ACK
3236,17475972800.00,Start repeat
3237,17476401040.00,Address read: 5A
3238,17476421960.00,ACK
3239,17476807120.00,Data read: 9A
3240,17476828120.00,ACK
3241,17476844400.00,Data read: 15
3242,17476865400.00,ACK
3243,17476877320.00,PEC OK: CB
3244,17476877320.00,Data read: CB
3245,17476898320.00,NACK
3246,17476911720.00,Stop
3247,17507899160.00,Start
3248,17507902800.00,Address write: 5A
3249,17507923720.00,ACK
3250,17507936000.00,Command: MFR_VOUT_MAX (A5)
3251,17507956920.00,ACK
3252,17507967760.00,Start repeat
3253,17508398960.00,Address read: 5A
3254,17508419920.00,ACK
3255,17508806800.00,Data read: 66
3256,17508827800.00,ACK
3257,17508844080.00,Data read: 1A
3258,17508865080.00,ACK
3259,17508877000.00,Data read: 18
3260,17508877000.00,PEC OK: 18
3261,17508898000.00,NACK
3262,17508911400.00,Stop
3263,17538902560.00,Start
3264,17538906200.00,Address write: 5A
3265,17538927120.00,ACK
3266,17538939400.00,Command: MFR_IOUT_MAX (A6)
3267,17538960320.00,ACK
3268,17538971120.00,Start repeat
3269,17539405360.00,Address read: 5A
3270,17539426280.00,ACK
3271,17539819640.00,Data read: 20
3272,17539840640.00,ACK
3273,17539852520.00,Data read: DB
3274,17539873520.00,ACK
3275,17539885480.00,PEC OK: 4E
3276,17539885480.00,Data read: 4E
3277,17539906480.00,NACK
3278,17539919880.00,Stop
3279,17571901480.00,Start
3280,17571905080.00,Address write: 5A
3281,17571926040.00,ACK
3282,17571938320.00,Command: MFR_POUT_MAX (A7)
3283,17571959280.00,ACK
3284,17571970080.00,Start repeat
3285,17572407320.00,Address read: 5A
3286,17572428240.00,ACK
3287,17572825520.00,Data read: 58
3288,17572846520.00,ACK
3289,17572858440.00,Data read: FA
3290,17572879400.00,ACK
3291,17572891360.00,Data read: B5
3292,17572891360.00,PEC OK: B5
3293,17572912320.00,NACK
3294,17572925720.00,Stop
3295,17617901880.00,Start
3296,17617905480.00,Address write: 5A
3297,17617926440.00,ACK
3298,17617938920.00,Command: MFR_TAMBIENT_MAX (A8)
3299,17617959840.00,ACK
3300,17617970640.00,Start repeat
3301,17618410880.00,Address read: 5A
3302,17618431800.00,ACK
3303,17618829160.00,Data read: 20
3304,17618850160.00,ACK
3305,17618862080.00,Data read: EB
3306,17618883040.00,ACK
3307,17618894960.00,Data read: 1A
3308,17618894960.00,PEC OK: 1A
3309,17618915960.00,NACK
3310,17618929360.00,Stop
3311,17647902960.00,Start
3312,17647906560.00,Address write: 5A
3313,17647927480.00,ACK
3314,17647939800.00,Command: MFR_TAMBIENT_MIN (A9)
3315,17647960720.00,ACK
3316,17647971560.00,Start repeat
3317,17648414800.00,Address read: 5A
3318,17648435760.00,ACK
3319,17648835040.00,Data read: 80
3320,17648856040.00,ACK
3321,17648867960.00,Data read: D5
3322,17648888960.00,ACK
3323,17648900920.00,Data read: AE
3324,17648900920.00,PEC OK: AE
3325,17648921920.00,NACK
3326,17648935280.00,Stop
3327,17678900840.00,Start
3328,17678904680.00,Address write: 5A
3329,17678925600.00,ACK
3330,17678937920.00,Command: MFR_EFFICIENCY_LL (AA)
3331,17678958840.00,ACK
3332,17678969640.00,Start repeat
3333,17679415880.00,Address read: 5A
3334,17679436800.00,ACK
3335,17679866840.00,Data read: 06
3336,17679887840.00,ACK
3337,17679899760.00,Data read: 14
3338,17679920720.00,ACK
3339,17679932640.00,Data read: 5A
3340,17679953640.00,ACK
3341,17679965600.00,Data read: 32
3342,17679986600.00,ACK
3343,17679998520.00,Data read: 5C
3344,17680019520.00,ACK
3345,17680031440.00,Data read: 64
3346,17680052440.00,ACK
3347,17680064400.00,Data read: 5D
3348,17680085360.00,ACK
3349,17680097280.00,Data read: 96
3350,17680097280.00,PEC OK: 96
3351,17680118280.00,NACK
3352,17680155560.00,Stop
3353,17709896560.00,Start
3354,17709900400.00,Address write: 5A
3355,17709921320.00,ACK
3356,17709933600.00,Command: MFR_EFFICIENCY_HL (AB)
3357,17709954560.00,ACK
3358,17709965400.00,Start repeat
3359,17710414640.00,Address read: 5A
3360,17710435560.00,ACK
3361,17710867600.00,Data read: 06
3362,17710888600.00,ACK
3363,17710900520.00,Data read: 14
3364,17710921520.00,ACK
3365,17710933440.00,Data read: 5C
3366,17710954440.00,ACK
3367,17710966360.00,Data read: 32
3368,17710987360.00,ACK
3369,17710999280.00,Data read: 5E
3370,17711020280.00,ACK
3371,17711032200.00,Data read: 64
3372,17711053240.00,ACK
3373,17711091680.00,Data read: 60
3374,17711112680.00,ACK
3375,17711124600.00,Data read: C1
3376,17711124600.00,PEC OK: C1
3377,17711145600.00,NACK
3378,17711159000.00,Stop
3379,17750907520.00,Start
3380,17750911120.00,Address write: 5A
3381,17750932080.00,ACK
3382,17750944360.00,Command: MFR_PIN_ACCURACY (AC)
3383,17750965280.00,ACK
3384,17750976080.00,Start repeat
3385,17751453520.00,Address read: 5A
3386,17751474480.00,ACK
3387,17751869440.00,Data read: 32
3388,17751890440.00,ACK
3389,17751902360.00,Data read: E2
3390,17751902360.00,PEC OK: E2
3391,17751923360.00,NACK
3392,17751936760.00,Stop
3393,17780895240.00,Start
3394,17780899080.00,Address write: 5A
3395,17780920000.00,ACK
3396,17780948560.00,Command: IC_DEVICE_ID (AD)
3397,17780969520.00,ACK
3398,17780980360.00,Start repeat
3399,17781435520.00,Address read: 5A
3400,17781456480.00,ACK
3401,17781910440.00,Data read: 0A
3402,17781931440.00,ACK
3403,17781950520.00,Data read: 4D
3404,17781971520.00,ACK
3405,17781983480.00,Data read: 30
3406,17782004480.00,ACK
3407,17782016400.00,Data read: 33
3408,17782037400.00,ACK
3409,17782049320.00,Data read: 31
3410,17782070320.00,ACK
3411,17782082440.00,Data read: 5F
3412,17782103440.00,ACK
3413,17782115360.00,Data read: 50
3414,17782136360.00,ACK
3415,17782148320.00,Data read: 4D
3416,17782169280.00,ACK
3417,17782181200.00,Data read: 42
3418,17782202240.00,ACK
3419,17782214160.00,Data read: 55
3420,17782235160.00,ACK
3421,17782247080.00,Data read: 53
3422,17782268080.00,ACK
3423,17782280000.00,Data read: 86
3424,17782280000.00,PEC OK: 86
3425,17782301000.00,NACK
3426,17782314400.00,Stop
3427,17813897920.00,Start
3428,17813901760.00,Address write: 5A
3429,17813922720.00,ACK
3430,17813935000.00,Command: IC_DEVICE_REV (AE)
3431,17813955920.00,ACK
3432,17813966760.00,Start repeat
3433,17814424960.00,Address read: 5A
3434,17814445880.00,ACK
3435,17814885040.00,Data read: 07
3436,17814906080.00,ACK
3437,17814922360.00,Data read: 52
3438,17814943360.00,ACK
3439,17814955280.00,Data read: 45
3440,17814976280.00,ACK
3441,17814988200.00,Data read: 56
3442,17815009200.00,ACK
3443,17815021160.00,Data read: 5F
3444,17815042160.00,ACK
3445,17815054080.00,Data read: 30
3446,17815075080.00,ACK
3447,17815087000.00,Data read: 30
3448,17815108000.00,ACK
3449,17815119920.00,Data read: 31
3450,17815140920.00,ACK
3451,17815152840.00,Data read: C5
3452,17815152840.00,PEC OK: C5
3453,17815173840.00,NACK
3454,17815187240.00,Stop
3455,17844895400.00,Start
3456,17844899240.00,Address write: 5A
3457,17844920200.00,ACK
3458,17844932480.00,Command: USER_DATA_00 (B0)
3459,17844953400.00,ACK
3460,17844964200.00,Start repeat
3461,17845478080.00,Address read: 5A
3462,17845499000.00,ACK
3463,17845943240.00,Data read: 01
3464,17845964240.00,ACK
3465,17845980520.00,Data read: B0
3466,17846001520.00,ACK
3467,17846013440.00,Data read: F0
3468,17846013440.00,PEC OK: F0
3469,17846034440.00,NACK
3470,17846047840.00,Stop
3471,17875901760.00,Start
3472,17875905600.00,Address write: 5A
3473,17875926520.00,ACK
3474,17875938840.00,Command: USER_DATA_01 (B1)
3475,17875959760.00,ACK
3476,17875970560.00,Start repeat
3477,17876484480.00,Address read: 5A
3478,17876505440.00,ACK
3479,17876949680.00,Data read: 01
3480,17876970680.00,ACK
3481,17876986960.00,Data read: B1
3482,17877007960.00,ACK
3483,17877019880.00,Data read: E1
3484,17877019880.00,PEC OK: E1
3485,17877040880.00,NACK
3486,17877054280.00,Stop
3487,17907906040.00,Start
3488,17907909880.00,Address write: 5A
3489,17907930800.00,ACK
3490,17907943120.00,Command: USER_DATA_02 (B2)
3491,17907964040.00,ACK
3492,17907974840.00,Start repeat
3493,17908488760.00,Address read: 5A
3494,17908509720.00,ACK
3495,17908954120.00,Data read: 01
3496,17908975120.00,ACK
3497,17908991440.00,Data read: B2
3498,17909012440.00,ACK
3499,17909024320.00,Data read: D2
3500,17909024320.00,PEC OK: D2
3501,17909045320.00,NACK
3502,17909058720.00,Stop
3503,17939901240.00,Start
3504,17939905080.00,Address write: 5A
3505,17939926000.00,ACK
3506,17939938320.00,Command: USER_DATA_03 (B3)
3507,17939959280.00,ACK
3508,17939970120.00,Start repeat
3509,17940484040.00,Address read: 5A
3510,17940504960.00,ACK
3511,17940949200.00,Data read: 01
3512,17940970200.00,ACK
3513,17940986520.00,Data read: B3
3514,17941007520.00,ACK
3515,17941019440.00,Data read: C3
3516,17941019440.00,PEC OK: C3
3517,17941040440.00,NACK
3518,17941053800.00,Stop
3519,17971901040.00,Start
3520,17971904880.00,Address write: 5A
3521,17971925840.00,ACK
3522,17971938120.00,Command: USER_DATA_04 (B4)
3523,17971959040.00,ACK
3524,17971969880.00,Start repeat
3525,17972483760.00,Address read: 5A
3526,17972504680.00,ACK
3527,17972949080.00,Data read: 01
3528,17972970080.00,ACK
3529,17972986360.00,Data read: B4
3530,17973007360.00,ACK
3531,17973019280.00,PEC OK: B4
3532,17973019280.00,Data read: B4
3533,17973040280.00,NACK
3534,17973053680.00,Stop
3535,18004906480.00,Start
3536,18004910320.00,Address write: 5A
3537,18004931240.00,ACK
3538,18004943560.00,Command: USER_DATA_05 (B5)
3539,18004964480.00,ACK
3540,18004975320.00,Start repeat
3541,18005489240.00,Address read: 5A
3542,18005510200.00,ACK
3543,18005959040.00,Data read: 01
3544,18005980080.00,ACK
3545,18005992000.00,Data read: B5
3546,18006012960.00,ACK
3547,18006024880.00,Data read: A5
3548,18006024880.00,PEC OK: A5
3549,18006045880.00,NACK
3550,18006059280.00,Stop
3551,18051902880.00,Start
3552,18051906760.00,Address write: 5A
3553,18051927720.00,ACK
3554,18051940000.00,Command: USER_DATA_06 (B6)
3555,18051960920.00,ACK
3556,18051971760.00,Start repeat
3557,18052485640.00,Address read: 5A
3558,18052506600.00,ACK
3559,18052955200.00,Data read: 01
3560,18052976200.00,ACK
3561,18052988120.00,Data read: B6
3562,18053009160.00,ACK
3563,18053021080.00,Data read: 96
3564,18053021080.00,PEC OK: 96
3565,18053042080.00,NACK
3566,18053055440.00,Stop
3567,18081897320.00,Start
3568,18081901200.00,Address write: 5A
3569,18081922120.00,ACK
3570,18081934400.00,Command: USER_DATA_07 (B7)
3571,18081955360.00,ACK
3572,18081966200.00,Start repeat
3573,18082480120.00,Address read: 5A
3574,18082501080.00,ACK
3575,18082949720.00,Data read: 01
3576,18082970720.00,ACK
3577,18082982640.00,Data read: B7
3578,18083003640.00,ACK
3579,18083015560.00,Data read: 87
3580,18083015560.00,PEC OK: 87
3581,18083036560.00,NACK
3582,18083050000.00,Stop
3583,18114898760.00,Start
3584,18114902600.00,Address write: 5A
3585,18114923520.00,ACK
3586,18114935840.00,Command: USER_DATA_08 (B8)
3587,18114956760.00,ACK
3588,18114967600.00,Start repeat
3589,18115481480.00,Address read: 5A
3590,18115502440.00,ACK
3591,18115951080.00,Data read: 01
3592,18115972080.00,ACK
3593,18115984000.00,Data read: B8
3594,18116005000.00,ACK
3595,18116016920.00,Data read: 78
3596,18116016920.00,PEC OK: 78
3597,18116037920.00,NACK
3598,18116051320.00,Stop
3599,18144898560.00,Start
3600,18144902440.00,Address write: 5A
3601,18144923360.00,ACK
3602,18144935680.00,Command: USER_DATA_09 (B9)
3603,18144956600.00,ACK
3604,18144967400.00,Start repeat
3605,18145481280.00,Address read: 5A
3606,18145502240.00,ACK
3607,18145950880.00,Data read: 01
3608,18145971880.00,ACK
3609,18145983800.00,Data read: B9
3610,18146004800.00,ACK
3611,18146016760.00,Data read: 69
3612,18146016760.00,PEC OK: 69
3613,18146037760.00,NACK
3614,18146051120.00,Stop
3615,18178903240.00,Start
3616,18178907080.00,Address write: 5A
3617,18178928000.00,ACK
3618,18178940320.00,Command: USER_DATA_10 (BA)
3619,18178961240.00,ACK
3620,18178972040.00,Start repeat
3621,18179486040.00,Address read: 5A
3622,18179506960.00,ACK
3623,18179955640.00,Data read: 01
3624,18179976640.00,ACK
3625,18179988560.00,Data read: BA
3626,18180009560.00,ACK
3627,18180021480.00,Data read: 5A
3628,18180021480.00,PEC OK: 5A
3629,18180042520.00,NACK
3630,18180055880.00,Stop
3631,18223903120.00,Start
3632,18223906960.00,Address write: 5A
3633,18223927920.00,ACK
3634,18223940240.00,Command: USER_DATA_11 (BB)
3635,18223961200.00,ACK
3636,18223972040.00,Start repeat
3637,18224485960.00,Address read: 5A
3638,18224506920.00,ACK
3639,18224955560.00,Data read: 01
3640,18224976600.00,ACK
3641,18224988720.00,Data read: BB
3642,18225009720.00,ACK
3643,18225026840.00,Data read: 4B
3644,18225026840.00,PEC OK: 4B
3645,18225047840.00,NACK
3646,18225061240.00,Stop
3647,18256899760.00,Start
3648,18256903600.00,Address write: 5A
3649,18256924520.00,ACK
3650,18256949800.00,Command: USER_DATA_12 (BC)
3651,18256970760.00,ACK
3652,18256981600.00,Start repeat
3653,18257495560.00,Address read: 5A
3654,18257516480.00,ACK
3655,18257960760.00,Data read: 01
3656,18257981800.00,ACK
3657,18257998920.00,Data read: BC
3658,18258019880.00,ACK
3659,18258031800.00,Data read: 3C
3660,18258031800.00,PEC OK: 3C
3661,18258052800.00,NACK
3662,18258066200.00,Stop
3663,18287905440.00,Start
3664,18287909280.00,Address write: 5A
3665,18287930200.00,ACK
3666,18287942520.00,Command: USER_DATA_13 (BD)
3667,18287963480.00,ACK
3668,18287974280.00,Start repeat
3669,18288488240.00,Address read: 5A
3670,18288509160.00,ACK
3671,18288953400.00,Data read: 01
3672,18288974400.00,ACK
3673,18288990680.00,Data read: BD
3674,18289011680.00,ACK
3675,18289023640.00,Data read: 2D
3676,18289023640.00,PEC OK: 2D
3677,18289044640.00,NACK
3678,18289058040.00,Stop
3679,18318899640.00,Start
3680,18318903520.00,Address write: 5A
3681,18318924440.00,ACK
3682,18318936720.00,Command: USER_DATA_14 (BE)
3683,18318957680.00,ACK
3684,18318968520.00,Start repeat
3685,18319482440.00,Address read: 5A
3686,18319503400.00,ACK
3687,18319947640.00,Data read: 01
3688,18319968640.00,ACK
3689,18319984920.00,Data read: BE
3690,18320005920.00,ACK
3691,18320017840.00,PEC OK: 1E
3692,18320017840.00,Data read: 1E
3693,18320038840.00,NACK
3694,18320052240.00,Stop
3695,18350900760.00,Start
3696,18350904640.00,Address write: 5A
3697,18350925560.00,ACK
3698,18350937840.00,Command: USER_DATA_15 (BF)
3699,18350958840.00,ACK
3700,18350969640.00,Start repeat
3701,18351483560.00,Address read: 5A
3702,18351504480.00,ACK
3703,18351948720.00,Data read: 01
3704,18351969760.00,ACK
3705,18351986040.00,Data read: BF
3706,18352007040.00,ACK
3707,18352018920.00,Data read: 0F
3708,18352018920.00,PEC OK: 0F
3709,18352039960.00,NACK
3710,18352053320.00,Stop
3711,18382908800.00,Start
3712,18382912440.00,Address write: 5A
3713,18382933360.00,ACK
3714,18382945640.00,Command: MFR_MAX_TEMP_1 (C0)
3715,18382966520.00,ACK
3716,18382977360.00,Start repeat
3717,18383438520.00,Address read: 5A
3718,18383459440.00,ACK
3719,18383866360.00,Data read: 30
3720,18383887400.00,ACK
3721,18383903680.00,Data read: E2
3722,18383924680.00,ACK
3723,18383936600.00,PEC OK: 97
3724,18383936600.00,Data read: 97
3725,18383957600.00,NACK
3726,18383971000.00,Stop
3727,18428907640.00,Start
3728,18428911280.00,Address write: 5A
3729,18428932200.00,ACK
3730,18428944520.00,Command: MFR_MAX_TEMP_2 (C1)
3731,18428965400.00,ACK
3732,18428976240.00,Start repeat
3733,18429440440.00,Address read: 5A
3734,18429461360.00,ACK
3735,18429870240.00,Data read: B0
3736,18429891240.00,ACK
3737,18429907560.00,Data read: E2
3738,18429928520.00,ACK
3739,18429940480.00,Data read: 37
3740,18429940480.00,PEC OK: 37
3741,18429961440.00,NACK
3742,18429974880.00,Stop
3743,18460903440.00,Start
3744,18460907040.00,Address write: 5A
3745,18460927960.00,ACK
3746,18460940280.00,Command: MFR_MAX_TEMP_3 (C2)
3747,18460961160.00,ACK
3748,18460972000.00,Start repeat
3749,18461439160.00,Address read: 5A
3750,18461460120.00,ACK
3751,18461871280.00,Data read: 20
3752,18461892280.00,ACK
3753,18461908560.00,Data read: E3
3754,18461929560.00,ACK
3755,18461941720.00,Data read: EB
3756,18461941720.00,PEC OK: EB
3757,18461962680.00,NACK
3758,18461976120.00,Stop
3759,18492904600.00,Start
3760,18492908440.00,Address write: 5A
3761,18492929360.00,ACK
3762,18492941680.00,Command: MFR_SPECIFIC_C4 (C4)
3763,18492962560.00,ACK
3764,18492973400.00,Start repeat
3765,18493491360.00,Address read: 5A
3766,18493512320.00,ACK
3767,18493965080.00,Data read: 01
3768,18493986080.00,ACK
3769,18493998040.00,Data read: C4
3770,18494019000.00,ACK
3771,18494030920.00,Data read: D1
3772,18494030920.00,PEC OK: D1
3773,18494051920.00,NACK
3774,18494065320.00,Stop
3775,18523905160.00,Start
3776,18523909040.00,Address write: 5A
3777,18523929960.00,ACK
3778,18523942240.00,Command: MFR_SPECIFIC_C5 (C5)
3779,18523963160.00,ACK
3780,18523973960.00,Start repeat
3781,18524492000.00,Address read: 5A
3782,18524512920.00,ACK
3783,18524965720.00,Data read: 01
3784,18524986720.00,ACK
3785,18524998640.00,Data read: C5
3786,18525019680.00,ACK
3787,18525031600.00,Data read: C0
3788,18525031600.00,PEC OK: C0
3789,18525052600.00,NACK
3790,18525066000.00,Stop
3791,18555908080.00,Start
3792,18555911960.00,Address write: 5A
3793,18555932880.00,ACK
3794,18555945160.00,Command: MFR_SPECIFIC_C6 (C6)
3795,18555966080.00,ACK
3796,18555976920.00,Start repeat
3797,18556494920.00,Address read: 5A
3798,18556515840.00,ACK
3799,18556968840.00,Data read: 01
3800,18556989840.00,ACK
3801,18557001760.00,Data read: C6
3802,18557022760.00,ACK
3803,18557034680.00,Data read: F3
3804,18557034680.00,PEC OK: F3
3805,18557055680.00,NACK
3806,18557069080.00,Stop
3807,18587904760.00,Start
3808,18587908600.00,Address write: 5A
3809,18587929520.00,ACK
3810,18587941840.00,Command: MFR_SPECIFIC_C7 (C7)
3811,18587962760.00,ACK
3812,18587973600.00,Start repeat
3813,18588491560.00,Address read: 5A
3814,18588512480.00,ACK
3815,18588965280.00,Data read: 01
3816,18588986280.00,ACK
3817,18588998240.00,Data read: C7
3818,18589019200.00,ACK
3819,18589031120.00,Data read: E2
3820,18589031120.00,PEC OK: E2
3821,18589052120.00,NACK
3822,18589065560.00,Stop
3823,18619913240.00,Start
3824,18619917080.00,Address write: 5A
3825,18619938040.00,ACK
3826,18619950320.00,Command: MFR_SPECIFIC_C8 (C8)
3827,18619971240.00,ACK
3828,18619982040.00,Start repeat
3829,18620500080.00,Address read: 5A
3830,18620521000.00,ACK
3831,18620975760.00,Data read: 01
3832,18620996760.00,ACK
3833,18621008720.00,Data read: C8
3834,18621029720.00,ACK
3835,18621041640.00,Data read: 1D
3836,18621041640.00,PEC OK: 1D
3837,18621062640.00,NACK
3838,18621076040.00,Stop
3839,18651917960.00,Start
3840,18651921840.00,Address write: 5A
3841,18651942720.00,ACK
3842,18651955040.00,Command: MFR_SPECIFIC_C9 (C9)
3843,18651975960.00,ACK
3844,18651986760.00,Start repeat
3845,18652504760.00,Address read: 5A
3846,18652525720.00,ACK
3847,18652978480.00,Data read: 01
3848,18652999480.00,ACK
3849,18653011440.00,Data read: C9
3850,18653032440.00,ACK
3851,18653044360.00,Data read: 0C
3852,18653044360.00,PEC OK: 0C
3853,18653065320.00,NACK
3854,18653078760.00,Stop
3855,18682912760.00,Start
3856,18682916600.00,Address write: 5A
3857,18682937560.00,ACK
3858,18682949840.00,Command: MFR_SPECIFIC_CA (CA)
3859,18682970760.00,ACK
3860,18682981560.00,Start repeat
3861,18683499560.00,Address read: 5A
3862,18683520480.00,ACK
3863,18683973280.00,Data read: 01
3864,18683994280.00,ACK
3865,18684006200.00,Data read: CA
3866,18684027200.00,ACK
3867,18684039120.00,Data read: 3F
3868,18684039120.00,PEC OK: 3F
3869,18684060120.00,NACK
3870,18684078880.00,Stop
3871,18713913880.00,Start
3872,18713917760.00,Address write: 5A
3873,18713938680.00,ACK
3874,18713950960.00,Command: MFR_SPECIFIC_CB (CB)
3875,18713971920.00,ACK
3876,18714008480.00,Start repeat
3877,18714526480.00,Address read: 5A
3878,18714547440.00,ACK
3879,18714995840.00,Data read: 01
3880,18715016840.00,ACK
3881,18715033960.00,Data read: CB
3882,18715054960.00,ACK
3883,18715066880.00,PEC OK: 2E
3884,18715066880.00,Data read: 2E
3885,18715087880.00,NACK
3886,18715101280.00,Stop
3887,18744922560.00,Start
3888,18744926400.00,Address write: 5A
3889,18744947360.00,ACK
3890,18744959640.00,Command: MFR_SPECIFIC_CC (CC)
3891,18744980560.00,ACK
3892,18744991360.00,Start repeat
3893,18745509400.00,Address read: 5A
3894,18745530360.00,ACK
3895,18745978760.00,Data read: 01
3896,18745999760.00,ACK
3897,18746016040.00,Data read: CC
3898,18746037040.00,ACK
3899,18746048960.00,Data read: 59
3900,18746048960.00,PEC OK: 59
3901,18746069960.00,NACK
3902,18746083360.00,Stop
3903,18776918200.00,Start
3904,18776922040.00,Address write: 5A
3905,18776943000.00,ACK
3906,18776955280.00,Command: MFR_SPECIFIC_CD (CD)
3907,18776976200.00,ACK
3908,18776987040.00,Start repeat
3909,18777505080.00,Address read: 5A
3910,18777526040.00,ACK
3911,18777974480.00,Data read: 01
3912,18777995480.00,ACK
3913,18778011760.00,Data read: CD
3914,18778032760.00,ACK
3915,18778044680.00,Data read: 48
3916,18778044680.00,PEC OK: 48
3917,18778065680.00,NACK
3918,18778079080.00,Stop
3919,18807905040.00,Start
3920,18807908880.00,Address write: 5A
3921,18807929800.00,ACK
3922,18807942120.00,Command: MFR_SPECIFIC_CE (CE)
3923,18807963080.00,ACK
3924,18807973880.00,Start repeat
3925,18808491960.00,Address read: 5A
3926,18808512880.00,ACK
3927,18808961320.00,Data read: 01
3928,18808982280.00,ACK
3929,18808998600.00,Data read: CE
3930,18809019600.00,ACK
3931,18809031520.00,Data read: 7B
3932,18809031520.00,PEC OK: 7B
3933,18809052520.00,NACK
3934,18809065920.00,Stop
3935,18838903360.00,Start
3936,18838907200.00,Address write: 5A
3937,18838928160.00,ACK
3938,18838940440.00,Command: MFR_SPECIFIC_CF (CF)
3939,18838961400.00,ACK
3940,18838972240.00,Start repeat
3941,18839490280.00,Address read: 5A
3942,18839511240.00,ACK
3943,18839959640.00,Data read: 01
3944,18839980640.00,ACK
3945,18839998880.00,Data read: CF
3946,18840019880.00,ACK
3947,18840031800.00,Data read: 6A
3948,18840031800.00,PEC OK: 6A
3949,18840052800.00,NACK
3950,18840066160.00,Stop
3951,18871907400.00,Start
3952,18871911040.00,Address write: 5A
3953,18871931960.00,ACK
3954,18871944240.00,Command: MFR_SPECIFIC_D0 (D0)
3955,18871965160.00,ACK
3956,18871975960.00,Start repeat
3957,18872446080.00,Address read: 5A
3958,18872467040.00,ACK
3959,18872874320.00,Data read: 00
3960,18872895320.00,ACK
3961,18872911640.00,Data read: E1
3962,18872911640.00,PEC OK: E1
3963,18872932640.00,NACK
3964,18872946040.00,Stop
3965,18902911280.00,Start
3966,18902915120.00,Address write: 5A
3967,18902936080.00,ACK
3968,18902948360.00,Command: MFR_SPECIFIC_D1 (D1)
3969,18902969280.00,ACK
3970,18902980080.00,Start repeat
3971,18903498560.00,Address read: 5A
3972,18903519520.00,ACK
3973,18903968360.00,Data read: 01
3974,18903989320.00,ACK
3975,18904005640.00,Data read: D1
3976,18904026640.00,ACK
3977,18904038560.00,Data read: 93
3978,18904038560.00,PEC OK: 93
3979,18904059560.00,NACK
3980,18904072960.00,Stop
3981,18934910520.00,Start
3982,18934914360.00,Address write: 5A
3983,18934935280.00,ACK
3984,18934947600.00,Command: MFR_SPECIFIC_D2 (D2)
3985,18934968520.00,ACK
3986,18934979560.00,Start repeat
3987,18935498000.00,Address read: 5A
3988,18935518960.00,ACK
3989,18935967840.00,Data read: 01
3990,18935988840.00,ACK
3991,18936005120.00,Data read: D2
3992,18936026120.00,ACK
3993,18936038080.00,Data read: A0
3994,18936038080.00,PEC OK: A0
3995,18936059040.00,NACK
3996,18936072440.00,Stop
3997,18966905680.00,Start
3998,18966909520.00,Address write: 5A
3999,18966930480.00,ACK
4000,18966942760.00,Command: MFR_SPECIFIC_D3 (D3)
4001,18966963680.00,ACK
4002,18966974520.00,Start repeat
4003,18967493000.00,Address read: 5A
4004,18967513960.00,ACK
4005,18967967480.00,Data read: 01
4006,18967988480.00,ACK
4007,18968000400.00,Data read: D3
4008,18968021400.00,ACK
4009,18968033320.00,Data read: B1
4010,18968033320.00,PEC OK: B1
4011,18968054320.00,NACK
4012,18968067720.00,Stop
4013,18998910480.00,Start
4014,18998914080.00,Address write: 5A
4015,18998935040.00,ACK
4016,18998947320.00,Command: MFR_SPECIFIC_D4 (D4)
4017,18998968240.00,ACK
4018,18998979040.00,Start repeat
4019,18999452200.00,Address read: 5A
4020,18999473120.00,ACK
4021,18999894360.00,Data read: 01
4022,18999915360.00,ACK
4023,18999927280.00,Data read: 00
4024,18999948280.00,ACK
4025,18999960200.00,Data read: E4
4026,18999960200.00,PEC OK: E4
4027,18999981200.00,NACK
4028,18999994600.00,Stop
4029,19031911320.00,Start
4030,19031914920.00,Address write: 5A
4031,19031935880.00,ACK
4032,19031948160.00,Command: MFR_SPECIFIC_D5 (D5)
4033,19031969080.00,ACK
4034,19031979920.00,Start repeat
4035,19032455960.00,Address read: 5A
4036,19032476880.00,ACK
4037,19032892520.00,Data read: 01
4038,19032913520.00,ACK
4039,19032925480.00,Data read: 26
4040,19032925480.00,PEC OK: 26
4041,19032946440.00,NACK
4042,19032959880.00,Stop
4043,19077909760.00,Start
4044,19077913360.00,Address write: 5A
4045,19077934320.00,ACK
4046,19077946600.00,Command: MFR_SPECIFIC_D6 (D6)
4047,19077967520.00,ACK
4048,19077978360.00,Start repeat
4049,19078475400.00,Address read: 5A
4050,19078496360.00,ACK
4051,19078926160.00,Data read: 00
4052,19078947160.00,ACK
4053,19078959080.00,Data read: 9C
4054,19078959080.00,PEC OK: 9C
4055,19078980080.00,NACK
4056,19078993480.00,Stop
4057,19109910840.00,Start
4058,19109914480.00,Address write: 5A
4059,19109935400.00,ACK
4060,19109947680.00,Command: MFR_SPECIFIC_D8 (D8)
4061,19109968600.00,ACK
4062,19109979440.00,Start repeat
4063,19110482560.00,Address read: 5A
4064,19110503520.00,ACK
4065,19110942760.00,Data read: 00
4066,19110963760.00,ACK
4067,19110975680.00,Data read: 00
4068,19110996680.00,ACK
4069,19111008600.00,Data read: 19
4070,19111008600.00,PEC OK: 19
4071,19111029600.00,NACK
4072,19111043000.00,Stop
4073,19141905800.00,Start
4074,19141909680.00,Address write: 5A
4075,19141930600.00,ACK
4076,19141942880.00,Command: MFR_SPECIFIC_D9 (D9)
4077,19141963840.00,ACK
4078,19141974640.00,Start repeat
4079,19142453800.00,Address read: 5A
4080,19142474760.00,ACK
4081,19142932640.00,Data read: 07
4082,19142953640.00,ACK
4083,19142965600.00,Data read: 46
4084,19142986600.00,ACK
4085,19142998520.00,Data read: 57
4086,19143019520.00,ACK
4087,19143031440.00,Data read: 5F
4088,19143052480.00,ACK
4089,19143064400.00,Data read: 30
4090,19143085400.00,ACK
4091,19143097320.00,Data read: 30
4092,19143118320.00,ACK
4093,19143135440.00,Data read: 31
4094,19143156440.00,ACK
4095,19143168360.00,Data read: 41
4096,19143189360.00,ACK
4097,19143201520.00,PEC OK: F9
4098,19143201520.00,Data read: F9
4099,19143222520.00,NACK
4100,19143235920.00,Stop
4101,19172915520.00,Start
4102,19172919360.00,Address write: 5A
4103,19172940280.00,ACK
4104,19172952600.00,Command: MFR_SPECIFIC_DA (DA)
4105,19172973520.00,ACK
4106,19172984360.00,Start repeat
4107,19173502880.00,Address read: 5A
4108,19173523840.00,ACK
4109,19173977160.00,Data read: 01
4110,19173998160.00,ACK
4111,19174010080.00,Data read: DA
4112,19174031080.00,ACK
4113,19174043000.00,Data read: 28
4114,19174043000.00,PEC OK: 28
4115,19174064000.00,NACK
4116,19174082560.00,Stop
4117,19205912600.00,Start
4118,19205916200.00,Address write: 5A
4119,19205937120.00,ACK
4120,19205949440.00,Command: MFR_SPECIFIC_DB (DB)
4121,19205970400.00,ACK
4122,19206003280.00,Start repeat
4123,19206485360.00,Address read: 5A
4124,19206506320.00,ACK
4125,19206921600.00,Data read: 00
4126,19206942600.00,ACK
4127,19206954520.00,Data read: 0D
4128,19206954520.00,PEC OK: 0D
4129,19206975520.00,NACK
4130,19207004600.00,Stop
4131,19251909640.00,Start
4132,19251913480.00,Address write: 5A
4133,19251934400.00,ACK
4134,19251946720.00,Command: MFR_SPECIFIC_DC (DC)
4135,19251967640.00,ACK
4136,19251978440.00,Start repeat
4137,19252484520.00,Address read: 5A
4138,19252505440.00,ACK
4139,19253117160.00,Data read: 20
4140,19253138160.00,ACK
4141,19253154440.00,Data read: 02
4142,19253175440.00,ACK
4143,19253187360.00,Data read: 82
4144,19253208360.00,ACK
4145,19253220280.00,Data read: 82
4146,19253241280.00,ACK
4147,19253253200.00,Data read: 00
4148,19253274160.00,ACK
4149,19253286080.00,Data read: 00
4150,19253307080.00,ACK
4151,19253319000.00,Data read: 00
4152,19253340000.00,ACK
4153,19253351920.00,Data read: 00
4154,19253372920.00,ACK
4155,19253384880.00,Data read: 00
4156,19253405840.00,ACK
4157,19253417760.00,Data read: 20
4158,19253438760.00,ACK
4159,19253450680.00,Data read: 00
4160,19253471680.00,ACK
4161,19253483600.00,Data read: 98
4162,19253504640.00,ACK
4163,19253516520.00,Data read: F3
4164,19253537560.00,ACK
4165,19253549480.00,Data read: 00
4166,19253570480.00,ACK
4167,19253582400.00,Data read: 18
4168,19253603400.00,ACK
4169,19253615320.00,Data read: 50
4170,19253636320.00,ACK
4171,19253648240.00,Data read: DA
4172,19253669240.00,ACK
4173,19253681160.00,Data read: 30
4174,19253702160.00,ACK
4175,19253714080.00,Data read: E2
4176,19253735080.00,ACK
4177,19253747000.00,Data read: B0
4178,19253768000.00,ACK
4179,19253779920.00,Data read: E2
4180,19253800920.00,ACK
4181,19253812840.00,Data read: 20
4182,19253833840.00,ACK
4183,19253845800.00,Data read: E3
4184,19253866760.00,ACK
4185,19253878680.00,Data read: EE
4186,19253899720.00,ACK
4187,19253916840.00,Data read: 22
4188,19253937840.00,ACK
4189,19253949760.00,Data read: E2
4190,19253970760.00,ACK
4191,19253982680.00,Data read: 22
4192,19254003680.00,ACK
4193,19254015600.00,Data read: 28
4194,19254036600.00,ACK
4195,19254048520.00,Data read: FA
4196,19254069520.00,ACK
4197,19254081440.00,Data read: 78
4198,19254102440.00,ACK
4199,19254114360.00,Data read: F3
4200,19254135360.00,ACK
4201,19254147320.00,Data read: C4
4202,19254168280.00,ACK
4203,19254180200.00,Data read: 00
4204,19254201200.00,ACK
4205,19254213160.00,Data read: BA
4206,19254213160.00,PEC OK: BA
4207,19254234120.00,NACK
4208,19254247560.00,Stop
4209,19284908560.00,Start
4210,19284912440.00,Address write: 5A
4211,19284933360.00,ACK
4212,19284945640.00,Command: MFR_SPECIFIC_DD (DD)
4213,19284966600.00,ACK
4214,19284977440.00,Start repeat
4215,19285462560.00,Address read: 5A
4216,19285483480.00,ACK
4217,19285924440.00,Data read: 04
4218,19285945440.00,ACK
4219,19285961720.00,Data read: 52
4220,19285982760.00,ACK
4221,19285994680.00,Data read: 54
4222,19286015680.00,ACK
4223,19286027600.00,Data read: 42
4224,19286048600.00,ACK
4225,19286060520.00,Data read: 01
4226,19286081520.00,ACK
4227,19286093440.00,Data read: 94
4228,19286093440.00,PEC OK: 94
4229,19286114440.00,NACK
4230,19286127840.00,Stop
4231,19316910600.00,Start
4232,19316914440.00,Address write: 5A
4233,19316935360.00,ACK
4234,19316947680.00,Command: MFR_SPECIFIC_DE (DE)
4235,19316968640.00,ACK
4236,19316979440.00,Start repeat
4237,19317467600.00,Address read: 5A
4238,19317488560.00,ACK
4239,19318087920.00,Data read: 20
4240,19318108920.00,ACK
4241,19318125200.00,Data read: 53
4242,19318146200.00,ACK
4243,19318158120.00,Data read: 59
4244,19318179120.00,ACK
4245,19318191040.00,Data read: 53
4246,19318212040.00,ACK
4247,19318223960.00,Data read: 01
4248,19318244960.00,ACK
4249,19318256880.00,Data read: 00
4250,19318277880.00,ACK
4251,19318289840.00,Data read: 00
4252,19318310840.00,ACK
4253,19318322760.00,Data read: 00
4254,19318343760.00,ACK
4255,19318355680.00,Data read: 00
4256,19318376680.00,ACK
4257,19318388600.00,Data read: 00
4258,19318409600.00,ACK
4259,19318421520.00,Data read: 00
4260,19318442520.00,ACK
4261,19318454480.00,Data read: 00
4262,19318475440.00,ACK
4263,19318487360.00,Data read: 00
4264,19318508360.00,ACK
4265,19318520280.00,Data read: 00
4266,19318541280.00,ACK
4267,19318553240.00,Data read: 00
4268,19318574240.00,ACK
4269,19318586160.00,Data read: 00
4270,19318607200.00,ACK
4271,19318619120.00,Data read: 00
4272,19318640120.00,ACK
4273,19318652000.00,Data read: 00
4274,19318673040.00,ACK
4275,19318684960.00,Data read: 00
4276,19318705960.00,ACK
4277,19318717880.00,Data read: 00
4278,19318738920.00,ACK
4279,19318773440.00,Data read: 00
4280,19318794440.00,ACK
4281,19318806320.00,Data read: 00
4282,19318827360.00,ACK
4283,19318839280.00,Data read: 00
4284,19318860280.00,ACK
4285,19318872200.00,Data read: 00
4286,19318893200.00,ACK
4287,19318905080.00,Data read: 00
4288,19318926120.00,ACK
4289,19318938040.00,Data read: 00
4290,19318959040.00,ACK
4291,19318970920.00,Data read: 00
4292,19318991960.00,ACK
4293,19319003880.00,Data read: 00
4294,19319024880.00,ACK
4295,19319036800.00,Data read: 00
4296,19319057800.00,ACK
4297,19319069720.00,Data read: 00
4298,19319090720.00,ACK
4299,19319102640.00,Data read: 00
4300,19319123640.00,ACK
4301,19319135560.00,Data read: 00
4302,19319156560.00,ACK
4303,19319168480.00,Data read: 00
4304,19319189520.00,ACK
4305,19319201720.00,Data read: 62
4306,19319201720.00,PEC OK: 62
4307,19319222720.00,NACK
4308,19319236120.00,Stop
4309,19364913040.00,Start
4310,19364916920.00,Address write: 5A
4311,19364937840.00,ACK
4312,19364950120.00,Command: MFR_SPECIFIC_DF (DF)
4313,19364971120.00,ACK
4314,19364981960.00,Start repeat
4315,19365500440.00,Address read: 5A
4316,19365521400.00,ACK
4317,19365970280.00,Data read: 01
4318,19365991280.00,ACK
4319,19366007560.00,Data read: DF
4320,19366028600.00,ACK
4321,19366040520.00,Data read: 7D
4322,19366040520.00,PEC OK: 7D
4323,19366061520.00,NACK
4324,19366074920.00,Stop
4325,19395918360.00,Start
4326,19395922200.00,Address write: 5A
4327,19395943120.00,ACK
4328,19395955440.00,Command: MFR_SPECIFIC_E0 (E0)
4329,19395976360.00,ACK
4330,19395987160.00,Start repeat
4331,19396505680.00,Address read: 5A
4332,19396526640.00,ACK
4333,19396975520.00,Data read: 01
4334,19396996520.00,ACK
4335,19397012840.00,Data read: E0
4336,19397033840.00,ACK
4337,19397045760.00,Data read: BB
4338,19397045760.00,PEC OK: BB
4339,19397066760.00,NACK
4340,19397080360.00,Stop
4341,19427916160.00,Start
4342,19427920000.00,Address write: 5A
4343,19427940920.00,ACK
4344,19427953240.00,Command: MFR_SPECIFIC_E1 (E1)
4345,19427974160.00,ACK
4346,19427984960.00,Start repeat
4347,19428503480.00,Address read: 5A
4348,19428524440.00,ACK
4349,19428986800.00,Data read: 01
4350,19429007800.00,ACK
4351,19429019720.00,Data read: E1
4352,19429040720.00,ACK
4353,19429052640.00,Data read: AA
4354,19429052640.00,PEC OK: AA
4355,19429073640.00,NACK
4356,19429087040.00,Stop
4357,19459915600.00,Start
4358,19459919440.00,Address write: 5A
4359,19459940400.00,ACK
4360,19459952720.00,Command: MFR_SPECIFIC_E2 (E2)
4361,19459973600.00,ACK
4362,19459984440.00,Start repeat
4363,19460502920.00,Address read: 5A
4364,19460523840.00,ACK
4365,19460977120.00,Data read: 01
4366,19460998160.00,ACK
4367,19461010080.00,Data read: E2
4368,19461031080.00,ACK
4369,19461043000.00,Data read: 99
4370,19461043000.00,PEC OK: 99
4371,19461064000.00,NACK
4372,19461077360.00,Stop
4373,19490913280.00,Start
4374,19490917120.00,Address write: 5A
4375,19490938040.00,ACK
4376,19490950360.00,Command: MFR_SPECIFIC_E3 (E3)
4377,19490971280.00,ACK
4378,19490982120.00,Start repeat
4379,19491500640.00,Address read: 5A
4380,19491521560.00,ACK
4381,19491974880.00,Data read: 01
4382,19491995880.00,ACK
4383,19492007800.00,Data read: E3
4384,19492028800.00,ACK
4385,19492040720.00,Data read: 88
4386,19492040720.00,PEC OK: 88
4387,19492061680.00,NACK
4388,19492075080.00,Stop
4389,19522917160.00,Start
4390,19522921000.00,Address write: 5A
4391,19522941920.00,ACK
4392,19522954200.00,Command: MFR_SPECIFIC_E4 (E4)
4393,19522975120.00,ACK
4394,19522985960.00,Start repeat
4395,19523504440.00,Address read: 5A
4396,19523525360.00,ACK
4397,19523978880.00,Data read: 01
4398,19523999880.00,ACK
4399,19524011800.00,Data read: E4
4400,19524032800.00,ACK
4401,19524044760.00,Data read: FF
4402,19524044760.00,PEC OK: FF
4403,19524065720.00,NACK
4404,19524079120.00,Stop
4405,19554914160.00,Start
4406,19554918000.00,Address write: 5A
4407,19554938920.00,ACK
4408,19554951240.00,Command: MFR_SPECIFIC_E5 (E5)
4409,19554972160.00,ACK
4410,19554982960.00,Start repeat
4411,19555501440.00,Address read: 5A
4412,19555522400.00,ACK
4413,19555975680.00,Data read: 01
4414,19555996680.00,ACK
4415,19556008600.00,Data read: E5
4416,19556029600.00,ACK
4417,19556041520.00,Data read: EE
4418,19556041520.00,PEC OK: EE
4419,19556062520.00,NACK
4420,19556075920.00,Stop
4421,19601914560.00,Start
4422,19601918400.00,Address write: 5A
4423,19601939320.00,ACK
4424,19601951640.00,Command: MFR_SPECIFIC_E6 (E6)
4425,19601972560.00,ACK
4426,19601983400.00,Start repeat
4427,19602501880.00,Address read: 5A
4428,19602522840.00,ACK
4429,19602976160.00,Data read: 01
4430,19602997160.00,ACK
4431,19603009080.00,Data read: E6
4432,19603030080.00,ACK
4433,19603042000.00,Data read: DD
4434,19603042000.00,PEC OK: DD
4435,19603063000.00,NACK
4436,19603076400.00,Stop
4437,19632917400.00,Start
4438,19632921240.00,Address write: 5A
4439,19632942160.00,ACK
4440,19632954480.00,Command: MFR_SPECIFIC_E7 (E7)
4441,19632975400.00,ACK
4442,19632986240.00,Start repeat
4443,19633504760.00,Address read: 5A
4444,19633525720.00,ACK
4445,19633979240.00,Data read: 01
4446,19634000240.00,ACK
4447,19634012160.00,Data read: E7
4448,19634033160.00,ACK
4449,19634045080.00,Data read: CC
4450,19634045080.00,PEC OK: CC
4451,19634066080.00,NACK
4452,19634079480.00,Stop
4453,19664915880.00,Start
4454,19664919720.00,Address write: 5A
4455,19664940640.00,ACK
4456,19664953120.00,Command: MFR_SPECIFIC_E8 (E8)
4457,19664974040.00,ACK
4458,19664984880.00,Start repeat
4459,19665503360.00,Address read: 5A
4460,19665524280.00,ACK
4461,19665977560.00,Data read: 01
4462,19665998560.00,ACK
4463,19666010480.00,Data read: E8
4464,19666031480.00,ACK
4465,19666062640.00,Data read: 33
4466,19666062640.00,PEC OK: 33
4467,19666083640.00,NACK
4468,19666097040.00,Stop
4469,19696916400.00,Start
4470,19696920240.00,Address write: 5A
4471,19696941200.00,ACK
4472,19696953480.00,Command: MFR_SPECIFIC_E9 (E9)
4473,19696974400.00,ACK
4474,19696995600.00,Start repeat
4475,19697514080.00,Address read: 5A
4476,19697535000.00,ACK
4477,19697983880.00,Data read: 01
4478,19698004880.00,ACK
4479,19698023960.00,Data read: E9
4480,19698044960.00,ACK
4481,19698056880.00,Data read: 22
4482,19698056880.00,PEC OK: 22
4483,19698077880.00,NACK
4484,19698091280.00,Stop
4485,19727912760.00,Start
4486,19727916600.00,Address write: 5A
4487,19727937560.00,ACK
4488,19727949840.00,Command: MFR_SPECIFIC_EA (EA)
4489,19727970760.00,ACK
4490,19727981600.00,Start repeat
4491,19728500120.00,Address read: 5A
4492,19728521040.00,ACK
4493,19728969920.00,Data read: 01
4494,19728990880.00,ACK
4495,19729007200.00,Data read: EA
4496,19729028200.00,ACK
4497,19729040120.00,Data read: 11
4498,19729040120.00,PEC OK: 11
4499,19729061120.00,NACK
4500,19729074520.00,Stop
4501,19759915240.00,Start
4502,19759919080.00,Address write: 5A
4503,19759940000.00,ACK
4504,19759952320.00,Command: MFR_SPECIFIC_EB (EB)
4505,19759973280.00,ACK
4506,19759984080.00,Start repeat
4507,19760502600.00,Address read: 5A
4508,19760523560.00,ACK
4509,19760972480.00,Data read: 01
4510,19760993480.00,ACK
4511,19761009760.00,Data read: EB
4512,19761030760.00,ACK
4513,19761042680.00,Data read: 00
4514,19761042680.00,PEC OK: 00
4515,19761063680.00,NACK
4516,19761077080.00,Stop
4517,19791919920.00,Start
4518,19791923760.00,Address write: 5A
4519,19791944680.00,ACK
4520,19791957000.00,Command: MFR_SPECIFIC_EC (EC)
4521,19791977960.00,ACK
4522,19791988760.00,Start repeat
4523,19792507320.00,Address read: 5A
4524,19792528240.00,ACK
4525,19792977120.00,Data read: 01
4526,19792998160.00,ACK
4527,19793014440.00,Data read: EC
4528,19793035440.00,ACK
4529,19793047360.00,Data read: 77
4530,19793047360.00,PEC OK: 77
4531,19793068360.00,NACK
4532,19793081760.00,Stop
4533,19822916000.00,Start
4534,19822919840.00,Address write: 5A
4535,19822940800.00,ACK
4536,19822953080.00,Command: MFR_SPECIFIC_ED (ED)
4537,19822974080.00,ACK
4538,19822984880.00,Start repeat
4539,19823503400.00,Address read: 5A
4540,19823524360.00,ACK
4541,19823973280.00,Data read: 01
4542,19823994280.00,ACK
4543,19824010600.00,Data read: ED
4544,19824031600.00,ACK
4545,19824043520.00,Data read: 66
4546,19824043520.00,PEC OK: 66
4547,19824064520.00,NACK
4548,19824077920.00,Stop
4549,19855910640.00,Start
4550,19855914480.00,Address write: 5A
4551,19855935400.00,ACK
4552,19855947720.00,Command: MFR_SPECIFIC_EE (EE)
4553,19855968680.00,ACK
4554,19855979480.00,Start repeat
4555,19856498000.00,Address read: 5A
4556,19856518960.00,ACK
4557,19856967840.00,Data read: 01
4558,19856988840.00,ACK
4559,19857005160.00,Data read: EE
4560,19857026160.00,ACK
4561,19857038080.00,Data read: 55
4562,19857038080.00,PEC OK: 55
4563,19857059080.00,NACK
4564,19857072440.00,Stop
4565,19901919320.00,Start
4566,19901923160.00,Address write: 5A
4567,19901944080.00,ACK
4568,19901956400.00,Command: MFR_SPECIFIC_EF (EF)
4569,19901977360.00,ACK
4570,19901988400.00,Start repeat
4571,19902506920.00,Address read: 5A
4572,19902527840.00,ACK
4573,19902976760.00,Data read: 01
4574,19902997720.00,ACK
4575,19903014080.00,Data read: EF
4576,19903035080.00,ACK
4577,19903047000.00,Data read: 44
4578,19903047000.00,PEC OK: 44
4579,19903068000.00,NACK
4580,19903081400.00,Stop
4581,19934923800.00,Start
4582,19934927440.00,Address write: 5A
4583,19934948360.00,ACK
4584,19934960640.00,Command: MFR_SPECIFIC_F0 (F0)
4585,19934981560.00,ACK
4586,19934992400.00,Start repeat
4587,19935483520.00,Address read: 5A
4588,19935504480.00,ACK
4589,19935935760.00,Data read: 20
4590,19935956800.00,ACK
4591,19935968720.00,Data read: EB
4592,19935989720.00,ACK
4593,19936001640.00,Data read: 56
4594,19936001640.00,PEC OK: 56
4595,19936022640.00,NACK
4596,19936036040.00,Stop
4597,19979918880.00,Start
4598,19979922720.00,Address write: 5A
4599,19979943640.00,ACK
4600,19979955960.00,Command: MFR_SPECIFIC_F1 (F1)
4601,19979976880.00,ACK
4602,19979987680.00,Start repeat
4603,19980481880.00,Address read: 5A
4604,19980502840.00,ACK
4605,19981010040.00,Data read: 0E
4606,19981031000.00,ACK
4607,19981042920.00,Data read: 01
4608,19981063920.00,ACK
4609,19981075840.00,Data read: 00
4610,19981096840.00,ACK
4611,19981108760.00,Data read: 00
4612,19981129800.00,ACK
4613,19981141720.00,Data read: 00
4614,19981162720.00,ACK
4615,19981174640.00,Data read: 00
4616,19981195680.00,ACK
4617,19981207600.00,Data read: 00
4618,19981228600.00,ACK
4619,19981240520.00,Data read: 00
4620,19981261560.00,ACK
4621,19981273480.00,Data read: 00
4622,19981294480.00,ACK
4623,19981306400.00,Data read: 00
4624,19981327400.00,ACK
4625,19981339320.00,Data read: 00
4626,19981360320.00,ACK
4627,19981372240.00,Data read: 00
4628,19981393280.00,ACK
4629,19981429560.00,Data read: 00
4630,19981450560.00,ACK
4631,19981462440.00,Data read: 00
4632,19981483440.00,ACK
4633,19981495360.00,Data read: 00
4634,19981516360.00,ACK
4635,19981528280.00,Data read: 0F
4636,19981528280.00,PEC OK: 0F
4637,19981549280.00,NACK
4638,19981562640.00,Stop
4639,20011913840.00,Start
4640,20011917680.00,Address write: 5A
4641,20011938640.00,ACK
4642,20011950920.00,Command: MFR_SPECIFIC_F2 (F2)
4643,20011971840.00,ACK
4644,20011982680.00,Start repeat
4645,20012500720.00,Address read: 5A
4646,20012521640.00,ACK
4647,20012974240.00,Data read: 01
4648,20012995240.00,ACK
4649,20013007200.00,Data read: F2
4650,20013028120.00,ACK
4651,20013040040.00,Data read: 8E
4652,20013040040.00,PEC OK: 8E
4653,20013061040.00,NACK
4654,20013074440.00,Stop
4655,20042913880.00,Start
4656,20042917720.00,Address write: 5A
4657,20042938640.00,ACK
4658,20042950960.00,Command: MFR_SPECIFIC_F3 (F3)
4659,20042971920.00,ACK
4660,20042982760.00,Start repeat
4661,20043500800.00,Address read: 5A
4662,20043521720.00,ACK
4663,20043974360.00,Data read: 01
4664,20043995360.00,ACK
4665,20044007280.00,Data read: F3
4666,20044028280.00,ACK
4667,20044040200.00,PEC OK: 9F
4668,20044040200.00,Data read: 9F
4669,20044061200.00,NACK
4670,20044074600.00,Stop
4671,20074915360.00,Start
4672,20074919200.00,Address write: 5A
4673,20074940160.00,ACK
4674,20074952440.00,Command: MFR_SPECIFIC_F4 (F4)
4675,20074973400.00,ACK
4676,20074984200.00,Start repeat
4677,20075502240.00,Address read: 5A
4678,20075523200.00,ACK
4679,20075976000.00,Data read: 01
4680,20075997000.00,ACK
4681,20076008960.00,Data read: F4
4682,20076029920.00,ACK
4683,20076042080.00,Data read: E8
4684,20076042080.00,PEC OK: E8
4685,20076063080.00,NACK
4686,20076076480.00,Stop
4687,20106921920.00,Start
4688,20106925800.00,Address write: 5A
4689,20106946720.00,ACK
4690,20106959040.00,Command: MFR_SPECIFIC_F5 (F5)
4691,20106979960.00,ACK
4692,20106990800.00,Start repeat
4693,20107508880.00,Address read: 5A
4694,20107529800.00,ACK
4695,20107984400.00,Data read: 01
4696,20108005400.00,ACK
4697,20108017320.00,Data read: F5
4698,20108038320.00,ACK
4699,20108050240.00,Data read: F9
4700,20108050240.00,PEC OK: F9
4701,20108071240.00,NACK
4702,20108084600.00,Stop
4703,20137918320.00,Start
4704,20137922160.00,Address write: 5A
4705,20137943080.00,ACK
4706,20137955400.00,Command: MFR_SPECIFIC_F6 (F6)
4707,20137976360.00,ACK
4708,20137987120.00,Start repeat
4709,20138505200.00,Address read: 5A
4710,20138526120.00,ACK
4711,20138978720.00,Data read: 01
4712,20138999720.00,ACK
4713,20139011680.00,Data read: F6
4714,20139032680.00,ACK
4715,20139044600.00,Data read: CA
4716,20139044600.00,PEC OK: CA
4717,20139065600.00,NACK
4718,20139079000.00,Stop
4719,20168924760.00,Start
4720,20168928600.00,Address write: 5A
4721,20168949560.00,ACK
4722,20168961840.00,Command: MFR_SPECIFIC_F7 (F7)
4723,20168982840.00,ACK
4724,20168993640.00,Start repeat
4725,20169511680.00,Address read: 5A
4726,20169532600.00,ACK
4727,20169985400.00,Data read: 01
4728,20170006400.00,ACK
4729,20170018320.00,Data read: F7
4730,20170039320.00,ACK
4731,20170061400.00,Data read: DB
4732,20170061400.00,PEC OK: DB
4733,20170082400.00,NACK
4734,20170095800.00,Stop
4735,20201913600.00,Start
4736,20201917440.00,Address write: 5A
4737,20201938360.00,ACK
4738,20201950640.00,Command: MFR_SPECIFIC_F8 (F8)
4739,20201971600.00,ACK
4740,20201995200.00,Start repeat
4741,20202513200.00,Address read: 5A
4742,20202534160.00,ACK
4743,20202982320.00,Data read: 01
4744,20203003320.00,ACK
4745,20203020440.00,Data read: F8
4746,20203041440.00,ACK
4747,20203053360.00,Data read: 24
4748,20203053360.00,PEC OK: 24
4749,20203074360.00,NACK
4750,20203087800.00,Stop
4751,20234921840.00,Start
4752,20234925720.00,Address write: 5A
4753,20234946600.00,ACK
4754,20234958880.00,Command: MFR_SPECIFIC_F9 (F9)
4755,20234979880.00,ACK
4756,20234990680.00,Start repeat
4757,20235508720.00,Address read: 5A
4758,20235529640.00,ACK
4759,20235977800.00,Data read: 01
4760,20235998800.00,ACK
4761,20236015080.00,Data read: F9
4762,20236036080.00,ACK
4763,20236048040.00,Data read: 35
4764,20236048040.00,PEC OK: 35
4765,20236069040.00,NACK
4766,20236082440.00,Stop
4767,20280921440.00,Start
4768,20280925320.00,Address write: 5A
4769,20280946240.00,ACK
4770,20280958520.00,Command: MFR_SPECIFIC_FA (FA)
4771,20280979480.00,ACK
4772,20280990280.00,Start repeat
4773,20281508320.00,Address read: 5A
4774,20281529240.00,ACK
4775,20281977440.00,Data read: 01
4776,20281998400.00,ACK
4777,20282014720.00,Data read: FA
4778,20282035720.00,ACK
4779,20282047640.00,Data read: 06
4780,20282047640.00,PEC OK: 06
4781,20282068640.00,NACK
4782,20282082040.00,Stop
4783,20312915240.00,Start
4784,20312919120.00,Address write: 5A
4785,20312940040.00,ACK
4786,20312952360.00,Command: MFR_SPECIFIC_FB (FB)
4787,20312973320.00,ACK
4788,20312984120.00,Start repeat
4789,20313502160.00,Address read: 5A
4790,20313523080.00,ACK
4791,20313971280.00,Data read: 01
4792,20313992280.00,ACK
4793,20314008560.00,Data read: FB
4794,20314029560.00,ACK
4795,20314041480.00,Data read: 17
4796,20314041480.00,PEC OK: 17
4797,20314062480.00,NACK
4798,20314076080.00,Stop
4799,20343924400.00,Start
4800,20343928240.00,Address write: 5A
4801,20343949160.00,ACK
4802,20343961480.00,Command: MFR_SPECIFIC_FC (FC)
4803,20343982440.00,ACK
4804,20343993240.00,Start repeat
4805,20344511280.00,Address read: 5A
4806,20344532240.00,ACK
4807,20344980400.00,Data read: 01
4808,20345001400.00,ACK
4809,20345017680.00,Data read: FC
4810,20345038680.00,ACK
4811,20345050600.00,Data read: 60
4812,20345050600.00,PEC OK: 60
4813,20345071600.00,NACK
4814,20345085000.00,Stop
4815,20375922880.00,Start
4816,20375926720.00,Address write: 5A
4817,20375947640.00,ACK
4818,20375959920.00,Command: MFR_SPECIFIC_FD (FD)
4819,20375980920.00,ACK
4820,20375991760.00,Start repeat
4821,20376509720.00,Address read: 5A
4822,20376530640.00,ACK
4823,20376978800.00,Data read: 01
4824,20376999800.00,ACK
4825,20377018040.00,Data read: FD
4826,20377039040.00,ACK
4827,20377051000.00,Data read: 71
4828,20377051000.00,PEC OK: 71
4829,20377072000.00,NACK
4830,20377085400.00,Stop
4831,20422921520.00,Start
4832,20422925160.00,Address write: 5A
4833,20422946080.00,ACK
4834,20422958360.00,Command: VOUT_COMMAND (21)
4835,20422979320.00,ACK
4836,20422990160.00,Start repeat
4837,20423083120.00,Address read: 5A
4838,20423104040.00,ACK
4839,20423265480.00,Data read: 00
4840,20423286480.00,ACK
4841,20423298440.00,Data read: 18
4842,20423319440.00,ACK
4843,20423331360.00,Data read: F4
4844,20423331360.00,PEC OK: F4
4845,20423352360.00,NACK
4846,20423365720.00,Stop
4847,20454917960.00,Start
4848,20454921600.00,Address write: 5A
4849,20454942520.00,ACK
4850,20454954800.00,Command: VOUT_COMMAND (21)
4851,20454975720.00,ACK
4852,20454985160.00,Data write: 01
4853,20455006040.00,ACK
4854,20455015520.00,Data write: 18
4855,20455036400.00,ACK
4856,20455047240.00,Start repeat
4857,20455326240.00,Address read: 5A
4858,20455347200.00,ACK
4859,20458292280.00,Data read: 01
4860,20458313280.00,ACK
4861,20458329600.00,Data read: 18
4862,20458350600.00,ACK
4863,20458362520.00,Data read: 5D
4864,20458362520.00,PEC OK: 5D
4865,20458383520.00,NACK
4866,20458396920.00,Stop
4867,20502925960.00,Start
4868,20502929560.00,Address write: 5A
4869,20502950520.00,ACK
4870,20502962800.00,Command: VOUT_COMMAND (21)
4871,20502983720.00,ACK
4872,20502994520.00,Start repeat
4873,20503087520.00,Address read: 5A
4874,20503108440.00,ACK
4875,20503269880.00,Data read: 01
4876,20503290880.00,ACK
4877,20503302840.00,Data read: 18
4878,20503323840.00,ACK
4879,20503335760.00,Data read: E1
4880,20503335760.00,PEC OK: E1
4881,20503356760.00,NACK
4882,20503390480.00,Stop
4883,20519924760.00,Start
4884,20519928520.00,Address write: 5A
4885,20519949440.00,ACK
4886,20519961760.00,Command: VOUT_COMMAND (21)
4887,20519982680.00,ACK
4888,20519992120.00,Data write: 00
4889,20520013000.00,ACK
4890,20520022480.00,Data write: 18
4891,20520043400.00,ACK
4892,20520052880.00,Data write: A0
4893,20520052880.00,PEC OK: A0
4894,20520073760.00,ACK
4895,20520084680.00,Stop
4896,20548925560.00,Start
4897,20548929200.00,Address write: 5A
4898,20548950120.00,ACK
4899,20551817400.00,Command: VOUT_COMMAND (21)
4900,20551838280.00,ACK
4901,20551853560.00,Start repeat
4902,20551946520.00,Address read: 5A
4903,20551967440.00,ACK
4904,20552128880.00,Data read: 00
4905,20552149880.00,ACK
4906,20552161800.00,Data read: 18
4907,20552182800.00,ACK
4908,20552194720.00,Data read: F4
4909,20552194720.00,PEC OK: F4
4910,20552215720.00,NACK
4911,20552229320.00,Stop
4912,20612928240.00,Start
4913,20612931880.00,Address write: 5A
4914,20612952800.00,ACK
4915,20612965120.00,Command: VOUT_MODE (20)
4916,20612986000.00,ACK
4917,20612996840.00,Start repeat
4918,20613086720.00,Address read: 5A
4919,20613107680.00,ACK
4920,20613261440.00,Data read: 17
4921,20613282440.00,ACK
4922,20613298720.00,Data read: E8
4923,20613298720.00,PEC OK: E8
4924,20613319720.00,NACK
4925,20613333120.00,Stop
4926,20645939320.00,Start
4927,20645942960.00,Address write: 5A
4928,20645963880.00,ACK
4929,20645976160.00,Command: VOUT_COMMAND (21)
4930,20645997080.00,ACK
4931,20646007880.00,Start repeat
4932,20646100840.00,Address read: 5A
4933,20646121800.00,ACK
4934,20646287840.00,Data read: 00
4935,20646308840.00,ACK
4936,20646320760.00,Data read: 18
4937,20646341760.00,ACK
4938,20646353680.00,Data read: F4
4939,20646353680.00,PEC OK: F4
4940,20646374680.00,NACK
4941,20646388080.00,Stop
4942,20660932360.00,Start
4943,20660936080.00,Address write: 5A
4944,20660957040.00,ACK
4945,20660969320.00,Command: VOUT_MODE (20)
4946,20660990240.00,ACK
4947,20660999680.00,Data write: 40
4948,20661020560.00,ACK
4949,20661030040.00,Data write: 28
4950,20661030040.00,PEC OK: 28
4951,20661050920.00,ACK
4952,20661074000.00,Stop
4953,20691930080.00,Start
4954,20691934520.00,Address write: 5A
4955,20691955480.00,ACK
4956,20691967760.00,Command: VOUT_MODE (20)
4957,20691988680.00,ACK
4958,20692013160.00,Start repeat
4959,20692103080.00,Address read: 5A
4960,20692124040.00,ACK
4961,20692273440.00,Data read: 40
4962,20692294440.00,ACK
4963,20692306400.00,Data read: 4A
4964,20692306400.00,PEC OK: 4A
4965,20692327400.00,NACK
4966,20692340760.00,Stop
4967,20708926080.00,Start
4968,20708929840.00,Address write: 5A
4969,20708950800.00,ACK
4970,20708976920.00,Command: VOUT_COMMAND (21)
4971,20708997880.00,ACK
4972,20709007320.00,Data write: E0
4973,20709028240.00,ACK
4974,20709037720.00,Data write: 2E
4975,20709058680.00,ACK
4976,20709068160.00,Data write: 61
4977,20709068160.00,PEC OK: 61
4978,20709089120.00,ACK
4979,20709100040.00,Stop
4980,20739935640.00,Start
4981,20739939240.00,Address write: 5A
4982,20739960200.00,ACK
4983,20742936120.00,Command: VOUT_COMMAND (21)
4984,20742957080.00,ACK
4985,20742972280.00,Start repeat
4986,20743065240.00,Address read: 5A
4987,20743086240.00,ACK
4988,20743243280.00,Data read: E0
4989,20743264280.00,ACK
4990,20743276200.00,Data read: 2E
4991,20743297200.00,ACK
4992,20743309120.00,Data read: 35
4993,20743309120.00,PEC OK: 35
4994,20743330160.00,NACK
4995,20743343560.00,Stop
4996,20786928800.00,Start
4997,20786932440.00,Address write: 5A
4998,20786953400.00,ACK
4999,20786965680.00,Command: READ_VOUT (8B)
5000,20786986640.00,ACK
5001,20786997480.00,Start repeat
5002,20787350880.00,Address read: 5A
5003,20787371840.00,ACK
5004,20787702480.00,Data read: E0
5005,20787723480.00,ACK
5006,20787735440.00,Data read: 2E
5007,20787756440.00,ACK
5008,20787768360.00,Data read: 56
5009,20787768360.00,PEC OK: 56
5010,20787789360.00,NACK
5011,20787814880.00,Stop
5012,20802923160.00,Start
5013,20802926880.00,Address write: 5A
5014,20802947840.00,ACK
5015,20802960120.00,Command: VOUT_MODE (20)
5016,20802981080.00,ACK
5017,20802990560.00,Data write: 60
5018,20803011520.00,ACK
5019,20803021000.00,Data write: C8
5020,20803021000.00,PEC OK: C8
5021,20803042000.00,ACK
5022,20803052920.00,Stop
5023,20834925120.00,Start
5024,20834928760.00,Address write: 5A
5025,20834949720.00,ACK
5026,20834962000.00,Command: VOUT_MODE (20)
5027,20834982920.00,ACK
5028,20834993760.00,Start repeat
5029,20835083640.00,Address read: 5A
5030,20835104600.00,ACK
5031,20835254200.00,Data read: 60
5032,20835275200.00,ACK
5033,20835287160.00,Data read: AA
5034,20835287160.00,PEC OK: AA
5035,20835308160.00,NACK
5036,20835321520.00,Stop
5037,20851924800.00,Start
5038,20851928560.00,Address write: 5A
5039,20851949480.00,ACK
5040,20851961800.00,Command: VOUT_COMMAND (21)
5041,20851982800.00,ACK
5042,20851992240.00,Data write: 00
5043,20852013160.00,ACK
5044,20852022600.00,Data write: 4A
5045,20852043600.00,ACK
5046,20852053080.00,Data write: 19
5047,20852053080.00,PEC OK: 19
5048,20852074080.00,ACK
5049,20852085040.00,Stop
5050,20897926920.00,Start
5051,20897930520.00,Address write: 5A
5052,20897951480.00,ACK
5053,20900825480.00,Command: VOUT_COMMAND (21)
5054,20900846480.00,ACK
5055,20900861640.00,Start repeat
5056,20900954600.00,Address read: 5A
5057,20900975560.00,ACK
5058,20901132600.00,Data read: 00
5059,20901153600.00,ACK
5060,20901165520.00,Data read: 4A
5061,20901186520.00,ACK
5062,20901198480.00,Data read: 4D
5063,20901198480.00,PEC OK: 4D
5064,20901219480.00,NACK
5065,20901232880.00,Stop
5066,20944930360.00,Start
5067,20944934000.00,Address write: 5A
5068,20944954960.00,ACK
5069,20944967240.00,Command: READ_VOUT (8B)
5070,20944988200.00,ACK
5071,20944999040.00,Start repeat
5072,20945352440.00,Address read: 5A
5073,20945373400.00,ACK
5074,20945704120.00,Data read: 00
5075,20945725120.00,ACK
5076,20945741400.00,Data read: 4A
5077,20945762400.00,ACK
5078,20945774320.00,PEC OK: 2E
5079,20945774320.00,Data read: 2E
5080,20945795320.00,NACK
5081,20945808720.00,Stop
5082,20963926440.00,Start
5083,20963930200.00,Address write: 5A
5084,20963951160.00,ACK
5085,20963963480.00,Command: VOUT_MODE (20)
5086,20963984360.00,ACK
5087,20963993840.00,Data write: 3E
5088,20964014840.00,ACK
5089,20964024320.00,Data write: 55
5090,20964024320.00,PEC OK: 55
5091,20964045280.00,ACK
5092,20964056240.00,Stop
5093,21007926760.00,Start
5094,21007930400.00,Address write: 5A
5095,21007951320.00,ACK
5096,21007963600.00,Command: VOUT_MODE (20)
5097,21007984480.00,ACK
5098,21007995280.00,Start repeat
5099,21008085200.00,Address read: 5A
5100,21008106120.00,ACK
5101,21008255560.00,Data read: 3E
5102,21008276600.00,ACK
5103,21008288520.00,Data read: 37
5104,21008288520.00,PEC OK: 37
5105,21008309520.00,NACK
5106,21008322920.00,Stop
5107,21024922160.00,Start
5108,21024925880.00,Address write: 5A
5109,21024946840.00,ACK
5110,21024959120.00,Command: VOUT_COMMAND (21)
5111,21024980000.00,ACK
5112,21024989480.00,Data write: 23
5113,21025010400.00,ACK
5114,21025019880.00,Data write: 01
5115,21025040800.00,ACK
5116,21025050280.00,Data write: 7E
5117,21025050280.00,PEC OK: 7E
5118,21025071240.00,ACK
5119,21025082160.00,Stop
5120,21055927680.00,Start
5121,21055931320.00,Address write: 5A
5122,21055952240.00,ACK
5123,21058770080.00,Command: VOUT_COMMAND (21)
5124,21058791000.00,ACK
5125,21058806240.00,Start repeat
5126,21058899200.00,Address read: 5A
5127,21058920160.00,ACK
5128,21059077400.00,Data read: 23
5129,21059098400.00,ACK
5130,21059110360.00,Data read: 01
5131,21059131360.00,ACK
5132,21059143280.00,PEC OK: 2A
5133,21059143280.00,Data read: 2A
5134,21059164280.00,NACK
5135,21059177680.00,Stop
5136,21103927120.00,Start
5137,21103930760.00,Address write: 5A
5138,21103951680.00,ACK
5139,21103963960.00,Command: READ_VOUT (8B)
5140,21103984880.00,ACK
5141,21103995680.00,Start repeat
5142,21104349120.00,Address read: 5A
5143,21104370080.00,ACK
5144,21104705120.00,Data read: 23
5145,21104726160.00,ACK
5146,21104738080.00,Data read: 01
5147,21104759080.00,ACK
5148,21104771000.00,Data read: 49
5149,21104771000.00,PEC OK: 49
5150,21104792000.00,NACK
5151,21104805400.00,Stop
5152,21120922200.00,Start
5153,21120925960.00,Address write: 5A
5154,21120946880.00,ACK
5155,21120959200.00,Command: VOUT_MODE (20)
5156,21120980080.00,ACK
5157,21120989560.00,Data write: 17
5158,21121010480.00,ACK
5159,21121019960.00,PEC OK: 8A
5160,21121019960.00,Data write: 8A
5161,21121040840.00,ACK
5162,21121051800.00,Stop
5163,21151926440.00,Start
5164,21151930200.00,Address write: 5A
5165,21151951120.00,ACK
5166,21151963440.00,Command: VOUT_COMMAND (21)
5167,21151984320.00,ACK
5168,21151993800.00,Data write: 00
5169,21152014680.00,ACK
5170,21152024160.00,Data write: 18
5171,21152045080.00,ACK
5172,21152066840.00,Data write: A0
5173,21152066840.00,PEC OK: A0
5174,21152087720.00,ACK
5175,21152098640.00,Stop
5176,21181927160.00,Start
5177,21181930760.00,Address write: 5A
5178,21181951720.00,ACK
5179,21184812160.00,Command: VOUT_COMMAND (21)
5180,21184833080.00,ACK
5181,21184848360.00,Start repeat
5182,21184941320.00,Address read: 5A
5183,21184962240.00,ACK
5184,21185119320.00,Data read: 00
5185,21185140320.00,ACK
5186,21185157440.00,Data read: 18
5187,21185178440.00,ACK
5188,21185190360.00,Data read: F4
5189,21185190360.00,PEC OK: F4
5190,21185211360.00,NACK
5191,21185224760.00,Stop
5192,21231932560.00,Start
5193,21231936200.00,Address write: 5A
5194,21231957120.00,ACK
5195,21231969400.00,Command: QUERY (1A)
5196,21231990320.00,ACK
5197,21231999800.00,Data write: 01
5198,21232020680.00,ACK
5199,21232030160.00,Data write: 98
5200,21232051080.00,ACK
5201,21232061880.00,Start repeat
5202,21232313680.00,Address read: 5A
5203,21232334640.00,ACK
5204,21233598400.00,Data read: 01
5205,21233619400.00,ACK
5206,21233635720.00,Data read: B0
5207,21233656720.00,ACK
5208,21233668640.00,Data read: AC
5209,21233668640.00,PEC OK: AC
5210,21233689640.00,NACK
5211,21233703040.00,Stop
5212,21277933800.00,Start
5213,21277937400.00,Address write: 5A
5214,21277958320.00,ACK
5215,21277970640.00,Command: SMBALERT_MASK (1B)
5216,21277991560.00,ACK
5217,21278001000.00,Data write: 01
5218,21278021920.00,ACK
5219,21278031360.00,Data write: 00
5220,21278052240.00,ACK
5221,21278063040.00,Start repeat
5222,21278299880.00,Address read: 5A
5223,21278320800.00,ACK
5224,21278595000.00,Data read: 02
5225,21278616000.00,ACK
5226,21278627920.00,Data read: 00
5227,21278648920.00,ACK
5228,21278660840.00,Data read: 00
5229,21278681840.00,ACK
5230,21278693800.00,PEC OK: DC
5231,21278693800.00,Data read: DC
5232,21278714800.00,NACK
5233,21278728160.00,Stop
5234,21297925200.00,Start
5235,21297928960.00,Address write: 5A
5236,21297949880.00,ACK
5237,21297962200.00,Command: SMBALERT_MASK (1B)
5238,21297983120.00,ACK
5239,21297992600.00,Data write: 01
5240,21298013480.00,ACK
5241,21298022960.00,Data write: 00
5242,21298043800.00,ACK
5243,21298053280.00,Data write: 9B
5244,21298053280.00,PEC OK: 9B
5245,21298074200.00,ACK
5246,21298085360.00,Stop
5247,21341933120.00,Start
5248,21341936760.00,Address write: 5A
5249,21341957680.00,ACK
5250,21342196080.00,Command: SMBALERT_MASK (1B)
5251,21342217040.00,ACK
5252,21342226520.00,Data write: 01
5253,21342247400.00,ACK
5254,21342256880.00,Data write: 00
5255,21342277760.00,ACK
5256,21342288600.00,Start repeat
5257,21342525400.00,Address read: 5A
5258,21342546320.00,ACK
5259,21342820520.00,Data read: 02
5260,21342841520.00,ACK
5261,21342857840.00,Data read: 01
5262,21342878840.00,ACK
5263,21342890760.00,Data read: 00
5264,21342911760.00,ACK
5265,21342923680.00,Data read: C9
5266,21342923680.00,PEC OK: C9
5267,21342944680.00,NACK
5268,21342958080.00,Stop
5269,21359926160.00,Start
5270,21359929880.00,Address write: 5A
5271,21359950840.00,ACK
5272,21359963120.00,Command: SMBALERT_MASK (1B)
5273,21359984040.00,ACK
5274,21359993520.00,Data write: 00
5275,21360014400.00,ACK
5276,21360023880.00,Data write: 00
5277,21360044720.00,ACK
5278,21360054200.00,Data write: 8E
5279,21360054200.00,PEC OK: 8E
5280,21360075120.00,ACK
5281,21360086080.00,Stop
5282,21390923800.00,Start
5283,21390927400.00,Address write: 5A
5284,21390948320.00,ACK
5285,21390960640.00,Command: SMBALERT_MASK (1B)
5286,21390981600.00,ACK
5287,21390991040.00,Data write: 01
5288,21391011960.00,ACK
5289,21391021400.00,Data write: 00
5290,21391042280.00,ACK
5291,21391053080.00,Start repeat
5292,21391289880.00,Address read: 5A
5293,21391310840.00,ACK
5294,21391585040.00,Data read: 02
5295,21391606040.00,ACK
5296,21391622360.00,Data read: 00
5297,21391643360.00,ACK
5298,21391655280.00,Data read: 00
5299,21391676280.00,ACK
5300,21391688200.00,Data read: DC
5301,21391688200.00,PEC OK: DC
5302,21391709200.00,NACK
5303,21391722600.00,Stop
5304,21436927840.00,Start
5305,21436931720.00,Address write: 5A
5306,21436952640.00,ACK
5307,21436964920.00,Command: USER_DATA_00 (B0)
5308,21436985840.00,ACK
5309,21436996680.00,Start repeat
5310,21437510640.00,Address read: 5A
5311,21437531600.00,ACK
5312,21437975960.00,Data read: 01
5313,21437996960.00,ACK
5314,21438008880.00,Data read: B0
5315,21438029880.00,ACK
5316,21438041800.00,Data read: F0
5317,21438041800.00,PEC OK: F0
5318,21438062800.00,NACK
5319,21438076160.00,Stop
5320,21468930200.00,Start
5321,21468934040.00,Address write: 5A
5322,21468954960.00,ACK
5323,21468967280.00,Command: MFR_SPECIFIC_C4 (C4)
5324,21468988240.00,ACK
5325,21468999080.00,Start repeat
5326,21469517080.00,Address read: 5A
5327,21469538000.00,ACK
5328,21469986440.00,Data read: 01
5329,21470007440.00,ACK
5330,21470019360.00,Data read: C4
5331,21470040400.00,ACK
5332,21470052320.00,Data read: D1
5333,21470052320.00,PEC OK: D1
5334,21470073320.00,NACK
5335,21470086720.00,Stop
5336,21484927800.00,Start
5337,21484931560.00,Address write: 5A
5338,21484952480.00,ACK
5339,21484964760.00,Command: USER_DATA_00 (B0)
5340,21484985680.00,ACK
5341,21484995160.00,Data write: 04
5342,21485016040.00,ACK
5343,21485025520.00,Data write: 55
5344,21485046480.00,ACK
5345,21485055960.00,Data write: A5
5346,21485076880.00,ACK
5347,21485086360.00,Data write: 10
5348,21485107280.00,ACK
5349,21485116720.00,Data write: 20
5350,21485137640.00,ACK
5351,21485147080.00,Data write: C6
5352,21485147080.00,PEC OK: C6
5353,21485168000.00,ACK
5354,21485178960.00,Stop
5355,21515932160.00,Start
5356,21515936000.00,Address write: 5A
5357,21515956960.00,ACK
5358,21515969240.00,Command: USER_DATA_00 (B0)
5359,21515990160.00,ACK
5360,21516000960.00,Start repeat
5361,21516514920.00,Address read: 5A
5362,21516535840.00,ACK
5363,21516998160.00,Data read: 04
5364,21517019160.00,ACK
5365,21517031080.00,Data read: 55
5366,21517052120.00,ACK
5367,21517064040.00,Data read: A5
5368,21517085040.00,ACK
5369,21517096960.00,Data read: 10
5370,21517117960.00,ACK
5371,21517129880.00,Data read: 20
5372,21517150920.00,ACK
5373,21517162840.00,PEC OK: 94
5374,21517162840.00,Data read: 94
5375,21517183840.00,NACK
5376,21517197240.00,Stop
5377,21531929720.00,Start
5378,21531933480.00,Address write: 5A
5379,21531954400.00,ACK
5380,21531966680.00,Command: MFR_SPECIFIC_C4 (C4)
5381,21531987600.00,ACK
5382,21531997080.00,Data write: 04
5383,21532017960.00,ACK
5384,21532027440.00,Data write: C4
5385,21532048360.00,ACK
5386,21532057840.00,Data write: 11
5387,21532078720.00,ACK
5388,21532088200.00,Data write: 22
5389,21532109160.00,ACK
5390,21532118600.00,Data write: 33
5391,21532139560.00,ACK
5392,21532149040.00,Data write: 1A
5393,21532149040.00,PEC OK: 1A
5394,21532169960.00,ACK
5395,21532180920.00,Stop
5396,21563931560.00,Start
5397,21563935400.00,Address write: 5A
5398,21563956320.00,ACK
5399,21563968640.00,Command: MFR_SPECIFIC_C4 (C4)
5400,21563989520.00,ACK
5401,21564000360.00,Start repeat
5402,21564518320.00,Address read: 5A
5403,21564539280.00,ACK
5404,21565005640.00,Data read: 04
5405,21565026640.00,ACK
5406,21565038560.00,Data read: C4
5407,21565059600.00,ACK
5408,21565071520.00,Data read: 11
5409,21565092520.00,ACK
5410,21565104440.00,Data read: 22
5411,21565125440.00,ACK
5412,21565137360.00,Data read: 33
5413,21565158360.00,ACK
5414,21565170280.00,Data read: 7D
5415,21565170280.00,PEC OK: 7D
5416,21565191320.00,NACK
5417,21565229080.00,Stop
5418,21580930320.00,Start
5419,21580934080.00,Address write: 5A
5420,21580955000.00,ACK
5421,21580967280.00,Command: USER_DATA_00 (B0)
5422,21580988200.00,ACK
5423,21580997680.00,Data write: 01
5424,21581018560.00,ACK
5425,21581028040.00,Data write: B0
5426,21581048960.00,ACK
5427,21581058400.00,PEC OK: 26
5428,21581058400.00,Data write: 26
5429,21581079360.00,ACK
5430,21581090280.00,Stop
5431,21611931760.00,Start
5432,21611935600.00,Address write: 5A
5433,21611956520.00,ACK
5434,21611968800.00,Command: USER_DATA_00 (B0)
5435,21611989720.00,ACK
5436,21612000560.00,Start repeat
5437,21612514440.00,Address read: 5A
5438,21612535400.00,ACK
5439,21612983040.00,Data read: 01
5440,21613004040.00,ACK
5441,21613015960.00,Data read: B0
5442,21613037000.00,ACK
5443,21613048920.00,Data read: F0
5444,21613048920.00,PEC OK: F0
5445,21613069920.00,NACK
5446,21613083320.00,Stop
5447,21628932880.00,Start
5448,21628936640.00,Address write: 5A
5449,21628957560.00,ACK
5450,21628969880.00,Command: MFR_SPECIFIC_C4 (C4)
5451,21628990760.00,ACK
5452,21629000240.00,Data write: 01
5453,21629021120.00,ACK
5454,21629030600.00,Data write: C4
5455,21629051480.00,ACK
5456,21629060960.00,Data write: A1
5457,21629060960.00,PEC OK: A1
5458,21629081880.00,ACK
5459,21629097240.00,Stop
5460,21674930680.00,Start
5461,21674934560.00,Address write: 5A
5462,21674955480.00,ACK
5463,21674967760.00,Command: MFR_SPECIFIC_C4 (C4)
5464,21674988680.00,ACK
5465,21675003920.00,Start repeat
5466,21675521880.00,Address read: 5A
5467,21675542840.00,ACK
5468,21675988440.00,Data read: 01
5469,21676009440.00,ACK
5470,21676026560.00,Data read: C4
5471,21676047560.00,ACK
5472,21676059480.00,Data read: D1
5473,21676059480.00,PEC OK: D1
5474,21676080480.00,NACK
5475,21676093880.00,Stop
5476,21721926120.00,Start
5477,21721929720.00,Address write: 5A
5478,21721950680.00,ACK
5479,21721962960.00,Command: PAGE (00)
5480,21721983800.00,ACK
5481,21721994640.00,Start repeat
5482,21722021680.00,Address read: 5A
5483,21722042600.00,ACK
5484,21722150040.00,Data read: 00
5485,21722171040.00,ACK
5486,21722182960.00,Data read: CE
5487,21722182960.00,PEC OK: CE
5488,21722203960.00,NACK
5489,21722217360.00,Stop
5490,21753932800.00,Start
5491,21753936400.00,Address write: 5A
5492,21753957320.00,ACK
5493,21753969640.00,Command: PHASE (04)
5494,21753990520.00,ACK
5495,21754001320.00,Start repeat
5496,21754040320.00,Address read: 5A
5497,21754061240.00,ACK
5498,21754176760.00,Data read: 00
5499,21754197760.00,ACK
5500,21754209680.00,Data read: 65
5501,21754209680.00,PEC OK: 65
5502,21754230680.00,NACK
5503,21754244080.00,Stop
5504,21789938040.00,Start
5505,21789941800.00,Address write: 5A
5506,21789962720.00,ACK
5507,21789975040.00,Command: PAGE (00)
5508,21789995920.00,ACK
5509,21790005360.00,Data write: 00
5510,21790026240.00,ACK
5511,21790035720.00,Data write: 41
5512,21790056640.00,ACK
5513,21790067480.00,Start repeat
5514,21790228960.00,Address write: 5A
5515,21790249880.00,ACK
5516,21790262200.00,Command: PHASE (04)
5517,21790283080.00,ACK
5518,21790292560.00,Data write: 01
5519,21790313440.00,ACK
5520,21790322920.00,Data write: 12
5521,21790322920.00,PEC OK: 12
5522,21790343800.00,ACK
5523,21790354720.00,Stop
5524,21832933080.00,Start
5525,21832936680.00,Address write: 5A
5526,21832957640.00,ACK
5527,21832969920.00,Command: PAGE (00)
5528,21832990800.00,ACK
5529,21833001600.00,Start repeat
5530,21833028640.00,Address read: 5A
5531,21833049560.00,ACK
5532,21833157000.00,Data read: 00
5533,21833178040.00,ACK
5534,21833189920.00,Data read: CE
5535,21833189920.00,PEC OK: CE
5536,21833210920.00,NACK
5537,21833224360.00,Stop
5538,21864932200.00,Start
5539,21864935840.00,Address write: 5A
5540,21864956760.00,ACK
5541,21864969040.00,Command: PHASE (04)
5542,21864989960.00,ACK
5543,21865000760.00,Start repeat
5544,21865039760.00,Address read: 5A
5545,21865060720.00,ACK
5546,21865176240.00,Data read: 01
5547,21865197240.00,ACK
5548,21865209160.00,Data read: 62
5549,21865209160.00,PEC OK: 62
5550,21865230160.00,NACK
5551,21865243560.00,Stop
5552,21881932720.00,Start
5553,21881936480.00,Address write: 5A
5554,21881957360.00,ACK
5555,21881969680.00,Command: PHASE (04)
5556,21881990560.00,ACK
5557,21882000040.00,Data write: 00
5558,21882020920.00,ACK
5559,21882030360.00,Data write: 15
5560,21882030360.00,PEC OK: 15
5561,21882051320.00,ACK
5562,21882062240.00,Stop
5563,21912933200.00,Start
5564,21912936920.00,Address write: 5A
5565,21912957840.00,ACK
5566,21912970160.00,Command: PAGE (00)
5567,21912991000.00,ACK
5568,21913000480.00,Data write: 00
5569,21913021360.00,ACK
5570,21913030840.00,Data write: 41
5571,21913030840.00,PEC OK: 41
5572,21913051760.00,ACK
5573,21913062720.00,Stop
5574,21943933000.00,Start
5575,21943936640.00,Address write: 5A
5576,21943957560.00,ACK
5577,21943969880.00,Command: PHASE (04)
5578,21943990760.00,ACK
5579,21944001560.00,Start repeat
5580,21944040560.00,Address read: 5A
5581,21944061520.00,ACK
5582,21944177040.00,Data read: 00
5583,21944198040.00,ACK
5584,21944209960.00,Data read: 65
5585,21944209960.00,PEC OK: 65
5586,21944230960.00,NACK
5587,21944244360.00,Stop
5588,21975939080.00,Start
5589,21975942720.00,Address write: 5A
5590,21975963640.00,ACK
5591,21975975960.00,Command: PAGE (00)
5592,21975996840.00,ACK
5593,21976007680.00,Start repeat
5594,21976034680.00,Address read: 5A
5595,21976055640.00,ACK
5596,21976163080.00,Data read: 00
5597,21976184080.00,ACK
5598,21976196000.00,Data read: CE
5599,21976196000.00,PEC OK: CE
5600,21976217000.00,NACK
5601,21976230400.00,Stop
5602,23322938080.00,Start
5603,23322941840.00,Address write: 5A
5604,23322962800.00,ACK
5605,23322975080.00,Command: CLEAR_FAULTS (03)
5606,23322996000.00,ACK
5607,23323005440.00,Data write: 12
5608,23323005440.00,PEC OK: 12
5609,23323026360.00,ACK
5610,23323037320.00,Stop
5611,23402944200.00,Start
5612,23402947960.00,Address write: 5A
5613,23402968880.00,ACK
5614,23402981200.00,Command: CLEAR_FAULTS (03)
5615,23403002080.00,ACK
5616,23403011560.00,PEC OK: 12
5617,23403011560.00,Data write: 12
5618,23403032440.00,ACK
5619,23403043400.00,Stop
5620,23448946840.00,Start
5621,23448950440.00,Address write: 5A
5622,23448971400.00,ACK
5623,23448983680.00,Command: PMBUS_REVISION (98)
5624,23449004600.00,ACK
5625,23449015440.00,Start repeat
5626,23449407680.00,Address read: 5A
5627,23449428600.00,ACK
5628,23449788120.00,Data read: 33
5629,23449809120.00,ACK
5630,23449821080.00,Data read: AF
5631,23449821080.00,PEC OK: AF
5632,23449842080.00,NACK
5633,23449855480.00,Stop
5634,23495946960.00,Start
5635,23495950560.00,Address write: 5A
5636,23495971480.00,ACK
5637,23495983800.00,Command: PMBUS_REVISION (98)
5638,23496004680.00,ACK
5639,23496015480.00,Start repeat
5640,23496407760.00,Address read: 5A
5641,23496428680.00,ACK
5642,23496788400.00,Data read: 33
5643,23496809400.00,ACK
5644,23496821360.00,PEC OK: AF
5645,23496821360.00,Data read: AF
5646,23496842360.00,NACK
5647,23496855720.00,Stop
5648,23543940720.00,Start
5649,23543944360.00,Address write: 5A
5650,23543965280.00,ACK
5651,23543977560.00,Command: PAGE (00)
5652,23543998440.00,ACK
5653,23544009240.00,Start repeat
5654,23544036280.00,Address read: 5A
5655,23544057200.00,ACK
5656,23544169000.00,Data read: 00
5657,23544190000.00,ACK
5658,23544212760.00,Data read: CE
5659,23544212760.00,PEC OK: CE
5660,23544233760.00,NACK
5661,23544247160.00,Stop
5662,23560943640.00,Start
5663,23560947400.00,Address write: 5A
5664,23560968320.00,ACK
5665,23560980640.00,Command: PAGE (00)
5666,23561001520.00,ACK
5667,23561011000.00,Data write: 00
5668,23561031840.00,ACK
5669,23561041320.00,Data write: 41
5670,23561041320.00,PEC OK: 41
5671,23561062200.00,ACK
5672,23561073120.00,Stop
5673,23590941920.00,Start
5674,23590945520.00,Address write: 5A
5675,23590966480.00,ACK
5676,23590978760.00,Command: PAGE (00)
5677,23590999600.00,ACK
5678,23591010440.00,Start repeat
5679,23591037440.00,Address read: 5A
5680,23591058400.00,ACK
5681,23591170400.00,Data read: 00
5682,23591191400.00,ACK
5683,23591207680.00,Data read: CE
5684,23591207680.00,PEC OK: CE
5685,23591228680.00,NACK
5686,23591242080.00,Stop
5687,23638946160.00,Start
5688,23638949800.00,Address write: 5A
5689,23638970720.00,ACK
5690,23638983000.00,Command: OPERATION (01)
5691,23639003920.00,ACK
5692,23639019160.00,Start repeat
5693,23639049200.00,Address read: 5A
5694,23639070160.00,ACK
5695,23639184040.00,Data read: 80
5696,23639205000.00,ACK
5697,23639216920.00,Data read: 2C
5698,23639216920.00,PEC OK: 2C
5699,23639237920.00,NACK
5700,23639251320.00,Stop
5701,23655946640.00,Start
5702,23655950400.00,Address write: 5A
5703,23655971320.00,ACK
5704,23655983640.00,Command: OPERATION (01)
5705,23656004520.00,ACK
5706,23656014000.00,Data write: 80
5707,23656034840.00,ACK
5708,23656044320.00,Data write: DD
5709,23656044320.00,PEC OK: DD
5710,23656065280.00,ACK
5711,23656076240.00,Stop
5712,23685945480.00,Start
5713,23685949120.00,Address write: 5A
5714,23685970040.00,ACK
5715,23685982320.00,Command: OPERATION (01)
5716,23686003200.00,ACK
5717,23686014040.00,Start repeat
5718,23686044080.00,Address read: 5A
5719,23686065000.00,ACK
5720,23686178880.00,Data read: 80
5721,23686199840.00,ACK
5722,23686211760.00,Data read: 2C
5723,23686211760.00,PEC OK: 2C
5724,23686232760.00,NACK
5725,23686246200.00,Stop
5726,23702944680.00,Start
5727,23702948400.00,Address write: 5A
5728,23702969360.00,ACK
5729,23702981640.00,Command: OPERATION (01)
5730,23703002520.00,ACK
5731,23703012000.00,Data write: 80
5732,23703032840.00,ACK
5733,23703042320.00,Data write: DD
5734,23703042320.00,PEC OK: DD
5735,23703063280.00,ACK
5736,23703074200.00,Stop
5737,23733943280.00,Start
5738,23733946920.00,Address write: 5A
5739,23733967840.00,ACK
5740,23733980160.00,Command: OPERATION (01)
5741,23734001040.00,ACK
5742,23734011880.00,Start repeat
5743,23734041880.00,Address read: 5A
5744,23734062800.00,ACK
5745,23734176680.00,Data read: 80
5746,23734197680.00,ACK
5747,23734209600.00,Data read: 2C
5748,23734209600.00,PEC OK: 2C
5749,23734230600.00,NACK
5750,23734244000.00,Stop
5751,23781943120.00,Start
5752,23781946720.00,Address write: 5A
5753,23781967680.00,ACK
5754,23781979960.00,Command: ON_OFF_CONFIG (02)
5755,23782000840.00,ACK
5756,23782011680.00,Start repeat
5757,23782044720.00,Address read: 5A
5758,23782065640.00,ACK
5759,23782181480.00,Data read: 1A
5760,23782202480.00,ACK
5761,23782214440.00,Data read: 5E
5762,23782214440.00,PEC OK: 5E
5763,23782235440.00,NACK
5764,23782248840.00,Stop
5765,23799942600.00,Start
5766,23799946360.00,Address write: 5A
5767,23799967280.00,ACK
5768,23799979600.00,Command: ON_OFF_CONFIG (02)
5769,23800000480.00,ACK
5770,23800009960.00,Data write: 1B
5771,23800030880.00,ACK
5772,23800040360.00,Data write: 2A
5773,23800040360.00,PEC OK: 2A
5774,23800061320.00,ACK
5775,23800072240.00,Stop
5776,23844948120.00,Start
5777,23844951720.00,Address write: 5A
5778,23844972680.00,ACK
5779,23844984960.00,Command: ON_OFF_CONFIG (02)
5780,23845005840.00,ACK
5781,23845016680.00,Start repeat
5782,23845049680.00,Address read: 5A
5783,23845070640.00,ACK
5784,23845186440.00,Data read: 1B
5785,23845207440.00,ACK
5786,23845219560.00,Data read: 59
5787,23845219560.00,PEC OK: 59
5788,23845240600.00,NACK
5789,23845253960.00,Stop
5790,23861944320.00,Start
5791,23861948080.00,Address write: 5A
5792,23861969000.00,ACK
5793,23861981320.00,Command: ON_OFF_CONFIG (02)
5794,23862002200.00,ACK
5795,23862011640.00,Data write: 1A
5796,23862032600.00,ACK
5797,23862042040.00,Data write: 2D
5798,23862042040.00,PEC OK: 2D
5799,23862062960.00,ACK
5800,23862073920.00,Stop
5801,23892952160.00,Start
5802,23892955760.00,Address write: 5A
5803,23892976720.00,ACK
5804,23892988960.00,Command: ON_OFF_CONFIG (02)
5805,23893009840.00,ACK
5806,23893020680.00,Start repeat
5807,23893053680.00,Address read: 5A
5808,23893074600.00,ACK
5809,23893190640.00,Data read: 1A
5810,23893211680.00,ACK
5811,23893223600.00,Data read: 5E
5812,23893223600.00,PEC OK: 5E
5813,23893244600.00,NACK
5814,23893258000.00,Stop
5815,23939948320.00,Start
5816,23939951960.00,Address write: 5A
5817,23939972880.00,ACK
5818,23939985200.00,Command: FAN_CONFIG_1_2 (3A)
5819,23940006120.00,ACK
5820,23940016960.00,Start repeat
5821,23940172720.00,Address read: 5A
5822,23940193680.00,ACK
5823,23940391400.00,Data read: 00
5824,23940412400.00,ACK
5825,23940428680.00,Data read: A8
5826,23940428680.00,PEC OK: A8
5827,23940449680.00,NACK
5828,23940463080.00,Stop
5829,23957946520.00,Start
5830,23957950280.00,Address write: 5A
5831,23957971200.00,ACK
5832,23957983520.00,Command: FAN_CONFIG_1_2 (3A)
5833,23958004440.00,ACK
5834,23958013920.00,Data write: 01
5835,23958034800.00,ACK
5836,23958044280.00,Data write: 3D
5837,23958044280.00,PEC OK: 3D
5838,23958065240.00,ACK
5839,23958076160.00,Stop
5840,23987943800.00,Start
5841,23987947440.00,Address write: 5A
5842,23987968360.00,ACK
5843,23987980680.00,Command: FAN_CONFIG_1_2 (3A)
5844,23988001600.00,ACK
5845,23988012400.00,Start repeat
5846,23988168160.00,Address read: 5A
5847,23988189080.00,ACK
5848,23988387000.00,Data read: 01
5849,23988408000.00,ACK
5850,23988424320.00,Data read: AF
5851,23988424320.00,PEC OK: AF
5852,23988445280.00,NACK
5853,23988458720.00,Stop
5854,24004947960.00,Start
5855,24004951720.00,Address write: 5A
5856,24004972640.00,ACK
5857,24004984960.00,Command: FAN_CONFIG_1_2 (3A)
5858,24005005880.00,ACK
5859,24005015360.00,Data write: 00
5860,24005036200.00,ACK
5861,24005045680.00,Data write: 3A
5862,24005045680.00,PEC OK: 3A
5863,24005066640.00,ACK
5864,24005077560.00,Stop
5865,24034945680.00,Start
5866,24034949280.00,Address write: 5A
5867,24034970200.00,ACK
5868,24034982520.00,Command: FAN_CONFIG_1_2 (3A)
5869,24035003440.00,ACK
5870,24035014240.00,Start repeat
5871,24035170000.00,Address read: 5A
5872,24035190960.00,ACK
5873,24035393080.00,Data read: 00
5874,24035414080.00,ACK
5875,24035426040.00,Data read: A8
5876,24035426040.00,PEC OK: A8
5877,24035447000.00,NACK
5878,24035460400.00,Stop
5879,24082950160.00,Start
5880,24082953800.00,Address write: 5A
5881,24082974720.00,ACK
5882,24082987040.00,Command: VOUT_MODE (20)
5883,24083007880.00,ACK
5884,24083018720.00,Start repeat
5885,24083108600.00,Address read: 5A
5886,24083129520.00,ACK
5887,24083289840.00,Data read: 17
5888,24083310840.00,ACK
5889,24083322760.00,Data read: E8
5890,24083322760.00,PEC OK: E8
5891,24083343760.00,NACK
5892,24083357200.00,Stop
5893,24130953840.00,Start
5894,24130957480.00,Address write: 5A
5895,24130978400.00,ACK
5896,24130993120.00,Command: STATUS_BYTE (78)
5897,24131014040.00,ACK
5898,24131025080.00,Start repeat
5899,24131321520.00,Address read: 5A
5900,24131342440.00,ACK
5901,24131633880.00,Data read: 80
5902,24131654880.00,ACK
5903,24131666800.00,Data read: 71
5904,24131666800.00,PEC OK: 71
5905,24131687800.00,NACK
5906,24131701200.00,Stop
5907,24176946960.00,Start
5908,24176950600.00,Address write: 5A
5909,24176971560.00,ACK
5910,24176983840.00,Command: STATUS_WORD (79)
5911,24177004800.00,ACK
5912,24177015640.00,Start repeat
5913,24177315160.00,Address read: 5A
5914,24177336080.00,ACK
5915,24177635200.00,Data read: 80
5916,24177656240.00,ACK
5917,24177668160.00,Data read: 00
5918,24177689160.00,ACK
5919,24177701080.00,Data read: 46
5920,24177701080.00,PEC OK: 46
5921,24177722080.00,NACK
5922,24177735480.00,Stop
5923,24224948200.00,Start
5924,24224951800.00,Address write: 5A
5925,24224972760.00,ACK
5926,24224985040.00,Command: STATUS_VOUT (7A)
5927,24225006000.00,ACK
5928,24225016840.00,Start repeat
5929,24225319280.00,Address read: 5A
5930,24225340200.00,ACK
5931,24225635720.00,Data read: 00
5932,24225656720.00,ACK
5933,24225668640.00,Data read: 2E
5934,24225668640.00,PEC OK: 2E
5935,24225689640.00,NACK
5936,24225703040.00,Stop
5937,24272956640.00,Start
5938,24272960240.00,Address write: 5A
5939,24272981160.00,ACK
5940,24272993480.00,Command: STATUS_IOUT (7B)
5941,24273014440.00,ACK
5942,24273025280.00,Start repeat
5943,24273330680.00,Address read: 5A
5944,24273351640.00,ACK
5945,24273649080.00,Data read: 00
5946,24273670080.00,ACK
5947,24273696440.00,Data read: 45
5948,24273696440.00,PEC OK: 45
5949,24273717440.00,NACK
5950,24273730840.00,Stop
5951,24319946720.00,Start
5952,24319950320.00,Address write: 5A
5953,24319971280.00,ACK
5954,24319983560.00,Command: STATUS_INPUT (7C)
5955,24320004560.00,ACK
5956,24320015360.00,Start repeat
5957,24320323800.00,Address read: 5A
5958,24320344720.00,ACK
5959,24320644240.00,Data read: 00
5960,24320665240.00,ACK
5961,24320681520.00,Data read: 53
5962,24320681520.00,PEC OK: 53
5963,24320702520.00,NACK
5964,24320715920.00,Stop
5965,24367955520.00,Start
5966,24367959120.00,Address write: 5A
5967,24367980080.00,ACK
5968,24367992360.00,Command: STATUS_TEMPERATURE (7D)
5969,24368013320.00,ACK
5970,24368024160.00,Start repeat
5971,24368335600.00,Address read: 5A
5972,24368356560.00,ACK
5973,24368658000.00,Data read: 00
5974,24368679040.00,ACK
5975,24368695320.00,PEC OK: 38
5976,24368695320.00,Data read: 38
5977,24368716320.00,NACK
5978,24368729720.00,Stop
5979,24414949800.00,Start
5980,24414953400.00,Address write: 5A
5981,24414974360.00,ACK
5982,24414986640.00,Command: STATUS_CML (7E)
5983,24415007640.00,ACK
5984,24415018440.00,Start repeat
5985,24415332880.00,Address read: 5A
5986,24415353840.00,ACK
5987,24415657320.00,Data read: 00
5988,24415678320.00,ACK
5989,24415694600.00,Data read: 85
5990,24415694600.00,PEC OK: 85
5991,24415715600.00,NACK
5992,24415729000.00,Stop
5993,24461960520.00,Start
5994,24461964160.00,Address write: 5A
5995,24461985080.00,ACK
5996,24461997400.00,Command: STATUS_OTHER (7F)
5997,24462018400.00,ACK
5998,24462029240.00,Start repeat
5999,24462346640.00,Address read: 5A
6000,24462367560.00,ACK
6001,24462679360.00,Data read: 00
6002,24462700360.00,ACK
6003,24462712280.00,Data read: EE
6004,24462712280.00,PEC OK: EE
6005,24462733280.00,NACK
6006,24462746680.00,Stop
6007,24510962120.00,Start
6008,24510965720.00,Address write: 5A
6009,24510986640.00,ACK
6010,24510999160.00,Command: STATUS_MFR_SPECIFIC (80)
6011,24511020000.00,ACK
6012,24511030800.00,Start repeat
6013,24511351280.00,Address read: 5A
6014,24511372200.00,ACK
6015,24511684160.00,Data read: 00
6016,24511705120.00,ACK
6017,24511717080.00,Data read: C5
6018,24511717080.00,PEC OK: C5
6019,24511738040.00,NACK
6020,24511751480.00,Stop
6021,24557961840.00,Start
6022,24557965480.00,Address write: 5A
6023,24557986400.00,ACK
6024,24557998680.00,Command: STATUS_FANS_1_2 (81)
6025,24558019560.00,ACK
6026,24558030360.00,Start repeat
6027,24558353760.00,Address read: 5A
6028,24558374720.00,ACK
6029,24558688560.00,Data read: 00
6030,24558709560.00,ACK
6031,24558721480.00,Data read: AE
6032,24558721480.00,PEC OK: AE
6033,24558742480.00,NACK
6034,24558755880.00,Stop
6035,24604967280.00,Start
6036,24604970880.00,Address write: 5A
6037,24604991800.00,ACK
6038,24605016040.00,Command: READ_VIN (88)
6039,24605036920.00,ACK
6040,24605047760.00,Start repeat
6041,24605392160.00,Address read: 5A
6042,24605413120.00,ACK
6043,24605742160.00,Data read: 98
6044,24605763160.00,ACK
6045,24605775080.00,Data read: F3
6046,24605796080.00,ACK
6047,24605808000.00,Data read: 7B
6048,24605808000.00,PEC OK: 7B
6049,24605829000.00,NACK
6050,24605842400.00,Stop
6051,24652951560.00,Start
6052,24652955160.00,Address write: 5A
6053,24652976080.00,ACK
6054,24652988400.00,Command: READ_IIN (89)
6055,24653009280.00,ACK
6056,24653020120.00,Start repeat
6057,24653367520.00,Address read: 5A
6058,24653388440.00,ACK
6059,24653719720.00,Data read: 80
6060,24653740720.00,ACK
6061,24653752640.00,Data read: BA
6062,24653773640.00,ACK
6063,24653785560.00,Data read: 6A
6064,24653785560.00,PEC OK: 6A
6065,24653806600.00,NACK
6066,24653819960.00,Stop
6067,24699957960.00,Start
6068,24699961560.00,Address write: 5A
6069,24699982520.00,ACK
6070,24699994800.00,Command: READ_VOUT (8B)
6071,24700015720.00,ACK
6072,24700026520.00,Start repeat
6073,24700379880.00,Address read: 5A
6074,24700400840.00,ACK
6075,24700736040.00,Data read: 00
6076,24700757040.00,ACK
6077,24700768960.00,Data read: 18
6078,24700789960.00,ACK
6079,24700816440.00,Data read: 97
6080,24700816440.00,PEC OK: 97
6081,24700837440.00,NACK
6082,24700850840.00,Stop
6083,24746959360.00,Start
6084,24746963000.00,Address write: 5A
6085,24746983920.00,ACK
6086,24746996200.00,Command: READ_IOUT (8C)
6087,24747017120.00,ACK
6088,24747027920.00,Start repeat
6089,24747384320.00,Address read: 5A
6090,24747405240.00,ACK
6091,24747742320.00,Data read: 50
6092,24747763320.00,ACK
6093,24747779600.00,Data read: DA
6094,24747800640.00,ACK
6095,24747812560.00,Data read: B9
6096,24747812560.00,PEC OK: B9
6097,24747833560.00,NACK
6098,24747846960.00,Stop
6099,24794954040.00,Start
6100,24794957640.00,Address write: 5A
6101,24794978560.00,ACK
6102,24794990880.00,Command: READ_TEMPERATURE_1 (8D)
6103,24795011800.00,ACK
6104,24795022640.00,Start repeat
6105,24795382000.00,Address read: 5A
6106,24795402920.00,ACK
6107,24795741960.00,Data read: 30
6108,24795762960.00,ACK
6109,24795779240.00,Data read: E2
6110,24795800240.00,ACK
6111,24795812160.00,Data read: F2
6112,24795812160.00,PEC OK: F2
6113,24795833160.00,NACK
6114,24795846520.00,Stop
6115,24842957920.00,Start
6116,24842961560.00,Address write: 5A
6117,24842982480.00,ACK
6118,24842994800.00,Command: READ_TEMPERATURE_2 (8E)
6119,24843015720.00,ACK
6120,24843026520.00,Start repeat
6121,24843388880.00,Address read: 5A
6122,24843409840.00,ACK
6123,24843751080.00,Data read: B0
6124,24843772040.00,ACK
6125,24843788360.00,Data read: E2
6126,24843809360.00,ACK
6127,24843821280.00,Data read: 7E
6128,24843821280.00,PEC OK: 7E
6129,24843842280.00,NACK
6130,24843855680.00,Stop
6131,24890957840.00,Start
6132,24890961480.00,Address write: 5A
6133,24890982400.00,ACK
6134,24890994680.00,Command: READ_TEMPERATURE_3 (8F)
6135,24891015640.00,ACK
6136,24891026440.00,Start repeat
6137,24891391800.00,Address read: 5A
6138,24891412760.00,ACK
6139,24891762120.00,Data read: 20
6140,24891783120.00,ACK
6141,24891795040.00,Data read: E3
6142,24891816040.00,ACK
6143,24891827960.00,Data read: 8E
6144,24891827960.00,PEC OK: 8E
6145,24891848960.00,NACK
6146,24891862360.00,Stop
6147,24938956240.00,Start
6148,24938959880.00,Address write: 5A
6149,24938980800.00,ACK
6150,24938993080.00,Command: READ_FAN_SPEED_1 (90)
6151,24939014000.00,ACK
6152,24939024800.00,Start repeat
6153,24939393160.00,Address read: 5A
6154,24939414080.00,ACK
6155,24939763520.00,Data read: EE
6156,24939784520.00,ACK
6157,24939796440.00,Data read: 22
6158,24939817440.00,ACK
6159,24939829360.00,Data read: 49
6160,24939829360.00,PEC OK: 49
6161,24939850360.00,NACK
6162,24939863760.00,Stop
6163,24985954080.00,Start
6164,24985957680.00,Address write: 5A
6165,24985978640.00,ACK
6166,24985990920.00,Command: READ_FAN_SPEED_2 (91)
6167,24986011800.00,ACK
6168,24986022640.00,Start repeat
6169,24986394000.00,Address read: 5A
6170,24986414920.00,ACK
6171,24986766320.00,Data read: E2
6172,24986787320.00,ACK
6173,24986799240.00,Data read: 22
6174,24986820240.00,ACK
6175,24986832160.00,Data read: A3
6176,24986832160.00,PEC OK: A3
6177,24986853160.00,NACK
6178,24986866560.00,Stop
6179,25033955760.00,Start
6180,25033959360.00,Address write: 5A
6181,25033980280.00,ACK
6182,25033992560.00,Command: READ_POUT (96)
6183,25034013480.00,ACK
6184,25034024320.00,Start repeat
6185,25034410640.00,Address read: 5A
6186,25034431560.00,ACK
6187,25034792960.00,Data read: 78
6188,25034814000.00,ACK
6189,25034825920.00,Data read: F3
6190,25034846880.00,ACK
6191,25034858800.00,Data read: 9B
6192,25034858800.00,PEC OK: 9B
6193,25034879800.00,NACK
6194,25034893240.00,Stop
6195,25080953960.00,Start
6196,25080957600.00,Address write: 5A
6197,25080978520.00,ACK
6198,25080990800.00,Command: READ_PIN (97)
6199,25081011760.00,ACK
6200,25081028960.00,Start repeat
6201,25081418280.00,Address read: 5A
6202,25081439200.00,ACK
6203,25081798240.00,Data read: 28
6204,25081819240.00,ACK
6205,25081831160.00,Data read: FA
6206,25081852160.00,ACK
6207,25081864080.00,Data read: BE
6208,25081864080.00,PEC OK: BE
6209,25081885080.00,NACK
6210,25081898480.00,Stop
6211,25127962600.00,Start
6212,25127966440.00,Address write: 5A
6213,25127987400.00,ACK
6214,25127999680.00,Command: READ_EIN (86)
6215,25128020600.00,ACK
6216,25128031400.00,Start repeat
6217,25128369840.00,Address read: 5A
6218,25128390800.00,ACK
6219,25128744920.00,Data read: 06
6220,25128765920.00,ACK
6221,25128777840.00,Data read: E4
6222,25128798840.00,ACK
6223,25128810760.00,Data read: 66
6224,25128831760.00,ACK
6225,25128843680.00,Data read: 30
6226,25128864720.00,ACK
6227,25128876640.00,Data read: E5
6228,25128897640.00,ACK
6229,25128920080.00,Data read: 2C
6230,25128941080.00,ACK
6231,25128953000.00,Data read: 00
6232,25128974000.00,ACK
6233,25128985920.00,Data read: DD
6234,25128985920.00,PEC OK: DD
6235,25129006920.00,NACK
6236,25129020560.00,Stop
6237,25174962040.00,Start
6238,25174965880.00,Address write: 5A
6239,25174986800.00,ACK
6240,25174999120.00,Command: READ_EOUT (87)
6241,25175020040.00,ACK
6242,25175030840.00,Start repeat
6243,25175372280.00,Address read: 5A
6244,25175393240.00,ACK
6245,25175749400.00,Data read: 06
6246,25175770400.00,ACK
6247,25175782320.00,Data read: 42
6248,25175803320.00,ACK
6249,25175823640.00,Data read: F7
6250,25175844640.00,ACK
6251,25175856560.00,Data read: 26
6252,25175877560.00,ACK
6253,25175889480.00,Data read: EF
6254,25175910480.00,ACK
6255,25175922400.00,Data read: 2C
6256,25175943440.00,ACK
6257,25175955360.00,Data read: 00
6258,25175976360.00,ACK
6259,25175988240.00,Data read: D6
6260,25175988240.00,PEC OK: D6
6261,25176009280.00,NACK
6262,25176022640.00,Stop
6263,25222954440.00,Start
6264,25222958280.00,Address write: 5A
6265,25222979200.00,ACK
6266,25222991520.00,Command: MFR_ID (99)
6267,25223012400.00,ACK
6268,25223023240.00,Start repeat
6269,25223418520.00,Address read: 5A
6270,25223439440.00,ACK
6271,25223853840.00,Data read: 0A
6272,25223874800.00,ACK
6273,25223891120.00,Data read: 4D
6274,25223912120.00,ACK
6275,25223924080.00,Data read: 46
6276,25223945080.00,ACK
6277,25223957000.00,Data read: 52
6278,25223978000.00,ACK
6279,25223989920.00,Data read: 5F
6280,25224010960.00,ACK
6281,25224022880.00,Data read: 49
6282,25224043880.00,ACK
6283,25224055800.00,Data read: 44
6284,25224076800.00,ACK
6285,25224088720.00,Data read: 5F
6286,25224109720.00,ACK
6287,25224121640.00,Data read: 30
6288,25224142680.00,ACK
6289,25224154600.00,Data read: 30
6290,25224175600.00,ACK
6291,25224187520.00,Data read: 31
6292,25224208520.00,ACK
6293,25224220440.00,PEC OK: 0B
6294,25224220440.00,Data read: 0B
6295,25224241440.00,NACK
6296,25224254840.00,Stop
6297,25270958240.00,Start
6298,25270962080.00,Address write: 5A
6299,25270983000.00,ACK
6300,25270995280.00,Command: MFR_MODEL (9A)
6301,25271016200.00,ACK
6302,25271027040.00,Start repeat
6303,25271425360.00,Address read: 5A
6304,25271446280.00,ACK
6305,25271879440.00,Data read: 0D
6306,25271900440.00,ACK
6307,25271916760.00,Data read: 4D
6308,25271937760.00,ACK
6309,25271949680.00,Data read: 46
6310,25271970680.00,ACK
6311,25271982600.00,Data read: 52
6312,25272003600.00,ACK
6313,25272015520.00,Data read: 5F
6314,25272036520.00,ACK
6315,25272048480.00,Data read: 4D
6316,25272069480.00,ACK
6317,25272081400.00,Data read: 4F
6318,25272102360.00,ACK
6319,25272114280.00,Data read: 44
6320,25272135280.00,ACK
6321,25272147200.00,Data read: 45
6322,25272168200.00,ACK
6323,25272180120.00,Data read: 4C
6324,25272201120.00,ACK
6325,25272213040.00,Data read: 5F
6326,25272234040.00,ACK
6327,25272245960.00,Data read: 30
6328,25272266960.00,ACK
6329,25272278880.00,Data read: 30
6330,25272299840.00,ACK
6331,25272311760.00,Data read: 31
6332,25272332760.00,ACK
6333,25272344680.00,Data read: 06
6334,25272344680.00,PEC OK: 06
6335,25272365680.00,NACK
6336,25272379080.00,Stop
6337,25317959320.00,Start
6338,25317963160.00,Address write: 5A
6339,25317984120.00,ACK
6340,25317996400.00,Command: MFR_REVISION (9B)
6341,25318017320.00,ACK
6342,25318028160.00,Start repeat
6343,25318429440.00,Address read: 5A
6344,25318450360.00,ACK
6345,25318874320.00,Data read: 0B
6346,25318895320.00,ACK
6347,25318911640.00,Data read: 4D
6348,25318932640.00,ACK
6349,25318944560.00,Data read: 46
6350,25318965560.00,ACK
6351,25318977480.00,Data read: 52
6352,25318998480.00,ACK
6353,25319010440.00,Data read: 5F
6354,25319031400.00,ACK
6355,25319043520.00,Data read: 52
6356,25319064560.00,ACK
6357,25319076480.00,Data read: 45
6358,25319097480.00,ACK
6359,25319109400.00,Data read: 56
6360,25319130400.00,ACK
6361,25319142320.00,Data read: 5F
6362,25319163320.00,ACK
6363,25319175240.00,Data read: 30
6364,25319196200.00,ACK
6365,25319208160.00,Data read: 30
6366,25319229120.00,ACK
6367,25319241040.00,Data read: 31
6368,25319262040.00,ACK
6369,25319274000.00,Data read: A9
6370,25319274000.00,PEC OK: A9
6371,25319294960.00,NACK
6372,25319308400.00,Stop
6373,25381960960.00,Start
6374,25381964800.00,Address write: 5A
6375,25381985720.00,ACK
6376,25381998000.00,Command: MFR_SERIAL (9E)
6377,25382018960.00,ACK
6378,25382029800.00,Start repeat
6379,25382434080.00,Address read: 5A
6380,25382455000.00,ACK
6381,25382902160.00,Data read: 0E
6382,25382923160.00,ACK
6383,25382935080.00,Data read: 4D
6384,25382956080.00,ACK
6385,25382968040.00,Data read: 46
6386,25382989040.00,ACK
6387,25383000960.00,Data read: 52
6388,25383021960.00,ACK
6389,25383033880.00,Data read: 5F
6390,25383054920.00,ACK
6391,25383066840.00,Data read: 53
6392,25383087840.00,ACK
6393,25383099760.00,Data read: 45
6394,25383120760.00,ACK
6395,25383132680.00,Data read: 52
6396,25383153680.00,ACK
6397,25383165640.00,Data read: 49
6398,25383186640.00,ACK
6399,25383198560.00,Data read: 41
6400,25383219560.00,ACK
6401,25383231480.00,Data read: 4C
6402,25383252480.00,ACK
6403,25383264400.00,Data read: 5F
6404,25383285400.00,ACK
6405,25383297320.00,Data read: 30
6406,25383318360.00,ACK
6407,25383330280.00,Data read: 30
6408,25383351280.00,ACK
6409,25383363160.00,Data read: 31
6410,25383384200.00,ACK
6411,25383401320.00,Data read: FC
6412,25383401320.00,PEC OK: FC
6413,25383422280.00,NACK
6414,25383435680.00,Stop
6415,25428956240.00,Start
6416,25428959840.00,Address write: 5A
6417,25428980800.00,ACK
6418,25428993080.00,Command: ON_OFF_CONFIG (02)
6419,25429013960.00,ACK
6420,25429024800.00,Start repeat
6421,25429057800.00,Address read: 5A
6422,25429078760.00,ACK
6423,25429194800.00,Data read: 1A
6424,25429215760.00,ACK
6425,25429227680.00,Data read: 5E
6426,25429227680.00,PEC OK: 5E
6427,25429248680.00,NACK
6428,25429262080.00,Stop
6429,25459962920.00,Start
6430,25459966520.00,Address write: 5A
6431,25459987480.00,ACK
6432,25459999760.00,Command: CAPABILITY (19)
6433,25460020680.00,ACK
6434,25460031520.00,Start repeat
6435,25460112400.00,Address read: 5A
6436,25460133360.00,ACK
6437,25460281360.00,Data read: 80
6438,25460302360.00,ACK
6439,25460320600.00,Data read: DF
6440,25460320600.00,PEC OK: DF
6441,25460341600.00,NACK
6442,25460355000.00,Stop
6443,25492962560.00,Start
6444,25492966200.00,Address write: 5A
6445,25492987120.00,ACK
6446,25492999440.00,Command: VOUT_MODE (20)
6447,25493020320.00,ACK
6448,25493031120.00,Start repeat
6449,25493121040.00,Address read: 5A
6450,25493141960.00,ACK
6451,25493313320.00,Data read: 17
6452,25493334280.00,ACK
6453,25493346200.00,Data read: E8
6454,25493346200.00,PEC OK: E8
6455,25493367200.00,NACK
6456,25493380600.00,Stop
6457,25523957280.00,Start
6458,25523960920.00,Address write: 5A
6459,25523981840.00,ACK
6460,25523994120.00,Command: VOUT_COMMAND (21)
6461,25524015000.00,ACK
6462,25524025840.00,Start repeat
6463,25524118800.00,Address read: 5A
6464,25524139720.00,ACK
6465,25524305560.00,Data read: 00
6466,25524326560.00,ACK
6467,25524338480.00,Data read: 18
6468,25524359520.00,ACK
6469,25524371400.00,Data read: F4
6470,25524371400.00,PEC OK: F4
6471,25524392440.00,NACK
6472,25524405840.00,Stop
6473,25555964800.00,Start
6474,25555968440.00,Address write: 5A
6475,25555989360.00,ACK
6476,25556001840.00,Command: VOUT_TRIM (22)
6477,25556022760.00,ACK
6478,25556039200.00,Start repeat
6479,25556135160.00,Address read: 5A
6480,25556156120.00,ACK
6481,25556319480.00,Data read: 00
6482,25556340480.00,ACK
6483,25556352400.00,Data read: 00
6484,25556373400.00,ACK
6485,25556385320.00,PEC OK: 86
6486,25556385320.00,Data read: 86
6487,25556406320.00,NACK
6488,25556419720.00,Stop
6489,25586963080.00,Start
6490,25586966720.00,Address write: 5A
6491,25586987640.00,ACK
6492,25586999920.00,Command: VOUT_CAL_OFFSET (23)
6493,25587020840.00,ACK
6494,25587031680.00,Start repeat
6495,25587130600.00,Address read: 5A
6496,25587151560.00,ACK
6497,25587316960.00,Data read: 00
6498,25587337960.00,ACK
6499,25587349880.00,Data read: 00
6500,25587370880.00,ACK
6501,25587382800.00,Data read: 90
6502,25587382800.00,PEC OK: 90
6503,25587403800.00,NACK
6504,25587417200.00,Stop
6505,25618966160.00,Start
6506,25618969800.00,Address write: 5A
6507,25618990720.00,ACK
6508,25619003040.00,Command: VOUT_MAX (24)
6509,25619023920.00,ACK
6510,25619034760.00,Start repeat
6511,25619136680.00,Address read: 5A
6512,25619157640.00,ACK
6513,25619325000.00,Data read: 66
6514,25619345960.00,ACK
6515,25619357880.00,Data read: 1A
6516,25619378880.00,ACK
6517,25619390840.00,Data read: 3F
6518,25619390840.00,PEC OK: 3F
6519,25619411840.00,NACK
6520,25619425240.00,Stop
6521,25649957160.00,Start
6522,25649960800.00,Address write: 5A
6523,25649981720.00,ACK
6524,25649994040.00,Command: VOUT_MARGIN_HIGH (25)
6525,25650014960.00,ACK
6526,25650025760.00,Start repeat
6527,25650130680.00,Address read: 5A
6528,25650151640.00,ACK
6529,25650321040.00,Data read: 33
6530,25650342040.00,ACK
6531,25650353960.00,Data read: 19
6532,25650374960.00,ACK
6533,25650386920.00,Data read: 6D
6534,25650386920.00,PEC OK: 6D
6535,25650407880.00,NACK
6536,25650421320.00,Stop
6537,25682962120.00,Start
6538,25682965720.00,Address write: 5A
6539,25682986680.00,ACK
6540,25682998960.00,Command: VOUT_MARGIN_LOW (26)
6541,25683019920.00,ACK
6542,25683030720.00,Start repeat
6543,25683138640.00,Address read: 5A
6544,25683159600.00,ACK
6545,25683330920.00,Data read: CD
6546,25683351920.00,ACK
6547,25683363880.00,Data read: 16
6548,25683384880.00,ACK
6549,25683396800.00,Data read: B8
6550,25683396800.00,PEC OK: B8
6551,25683417800.00,NACK
6552,25683431200.00,Stop
6553,25713959200.00,Start
6554,25713962800.00,Address write: 5A
6555,25713983720.00,ACK
6556,25713996040.00,Command: VOUT_TRANSITION_RATE (27)
6557,25714016960.00,ACK
6558,25714027800.00,Start repeat
6559,25714138680.00,Address read: 5A
6560,25714159640.00,ACK
6561,25714333000.00,Data read: 00
6562,25714354000.00,ACK
6563,25714365920.00,Data read: 00
6564,25714386920.00,ACK
6565,25714398840.00,Data read: C8
6566,25714398840.00,PEC OK: C8
6567,25714419840.00,NACK
6568,25714433240.00,Stop
6569,25744965440.00,Start
6570,25744969080.00,Address write: 5A
6571,25744990000.00,ACK
6572,25745002280.00,Command: VOUT_DROOP (28)
6573,25745023200.00,ACK
6574,25745034000.00,Start repeat
6575,25745147920.00,Address read: 5A
6576,25745168880.00,ACK
6577,25745344200.00,Data read: 00
6578,25745365240.00,ACK
6579,25745377120.00,Data read: 00
6580,25745398160.00,ACK
6581,25745410080.00,PEC OK: 1A
6582,25745410080.00,Data read: 1A
6583,25745431080.00,NACK
6584,25745444480.00,Stop
6585,25776959920.00,Start
6586,25776963520.00,Address write: 5A
6587,25776984480.00,ACK
6588,25776996760.00,Command: VOUT_SCALE_LOOP (29)
6589,25777017680.00,ACK
6590,25777028680.00,Start repeat
6591,25777145600.00,Address read: 5A
6592,25777166520.00,ACK
6593,25777343880.00,Data read: 00
6594,25777364880.00,ACK
6595,25777376800.00,Data read: 00
6596,25777397800.00,ACK
6597,25777409720.00,Data read: 0C
6598,25777409720.00,PEC OK: 0C
6599,25777430720.00,NACK
6600,25777444120.00,Stop
6601,25807958280.00,Start
6602,25807961880.00,Address write: 5A
6603,25807982840.00,ACK
6604,25807995120.00,Command: VOUT_SCALE_MONITOR (2A)
6605,25808016040.00,ACK
6606,25808026880.00,Start repeat
6607,25808146760.00,Address read: 5A
6608,25808167720.00,ACK
6609,25808347040.00,Data read: 00
6610,25808368040.00,ACK
6611,25808379960.00,Data read: 00
6612,25808400960.00,ACK
6613,25808412880.00,Data read: 36
6614,25808412880.00,PEC OK: 36
6615,25808433880.00,NACK
6616,25808447240.00,Stop
6617,25838967360.00,Start
6618,25838970960.00,Address write: 5A
6619,25838991880.00,ACK
6620,25839004160.00,Command: VOUT_MIN (2B)
6621,25839025120.00,ACK
6622,25839035920.00,Start repeat
6623,25839158840.00,Address read: 5A
6624,25839179760.00,ACK
6625,25839361160.00,Data read: 9A
6626,25839382160.00,ACK
6627,25839394040.00,Data read: 15
6628,25839415040.00,ACK
6629,25839445520.00,Data read: 28
6630,25839445520.00,PEC OK: 28
6631,25839466520.00,NACK
6632,25839479920.00,Stop
6633,25870960240.00,Start
6634,25870963880.00,Address write: 5A
6635,25870984800.00,ACK
6636,25870997080.00,Command: POUT_MAX (31)
6637,25871018000.00,ACK
6638,25871028840.00,Start repeat
6639,25871157720.00,Address read: 5A
6640,25871178640.00,ACK
6641,25871363960.00,Data read: 58
6642,25871384960.00,ACK
6643,25871401240.00,Data read: FA
6644,25871422280.00,ACK
6645,25871434200.00,Data read: 97
6646,25871434200.00,PEC OK: 97
6647,25871455200.00,NACK
6648,25871468600.00,Stop
6649,25901964960.00,Start
6650,25901968600.00,Address write: 5A
6651,25901989520.00,ACK
6652,25902001840.00,Command: MAX_DUTY (32)
6653,25902022760.00,ACK
6654,25902033560.00,Start repeat
6655,25902165440.00,Address read: 5A
6656,25902186400.00,ACK
6657,25902373760.00,Data read: 20
6658,25902394800.00,ACK
6659,25902411080.00,Data read: EB
6660,25902432080.00,ACK
6661,25902443960.00,Data read: D0
6662,25902443960.00,PEC OK: D0
6663,25902465000.00,NACK
6664,25902478360.00,Stop
6665,25949967680.00,Start
6666,25949971320.00,Address write: 5A
6667,25949992240.00,ACK
6668,25950004520.00,Command: FREQUENCY_SWITCH (33)
6669,25950025480.00,ACK
6670,25950036280.00,Start repeat
6671,25950171160.00,Address read: 5A
6672,25950192120.00,ACK
6673,25950389720.00,Data read: 0D
6674,25950410720.00,ACK
6675,25950422640.00,Data read: 3B
6676,25950443640.00,ACK
6677,25950455560.00,PEC OK: BF
6678,25950455560.00,Data read: BF
6679,25950476560.00,NACK
6680,25950489960.00,Stop
6681,25980969320.00,Start
6682,25980972920.00,Address write: 5A
6683,25980993840.00,ACK
6684,25981006160.00,Command: POWER_MODE (34)
6685,25981027080.00,ACK
6686,25981037880.00,Start repeat
6687,25981175680.00,Address read: 5A
6688,25981196600.00,ACK
6689,25981387000.00,Data read: 00
6690,25981408000.00,ACK
6691,25981419920.00,Data read: 84
6692,25981419920.00,PEC OK: 84
6693,25981440920.00,NACK
6694,25981454280.00,Stop
6695,26012968840.00,Start
6696,26012972440.00,Address write: 5A
6697,26012993360.00,ACK
6698,26013005680.00,Command: VIN_ON (35)
6699,26013026640.00,ACK
6700,26013037440.00,Start repeat
6701,26013178320.00,Address read: 5A
6702,26013199240.00,ACK
6703,26013397240.00,Data read: D0
6704,26013418240.00,ACK
6705,26013430160.00,Data read: F2
6706,26013451160.00,ACK
6707,26013463080.00,Data read: E9
6708,26013463080.00,PEC OK: E9
6709,26013484080.00,NACK
6710,26013497480.00,Stop
6711,26045960640.00,Start
6712,26045964280.00,Address write: 5A
6713,26045985200.00,ACK
6714,26046017280.00,Command: VIN_OFF (36)
6715,26046038240.00,ACK
6716,26046049040.00,Start repeat
6717,26046192880.00,Address read: 5A
6718,26046213840.00,ACK
6719,26046409120.00,Data read: A8
6720,26046430120.00,ACK
6721,26046442040.00,Data read: F2
6722,26046463040.00,ACK
6723,26046474960.00,Data read: D9
6724,26046474960.00,PEC OK: D9
6725,26046495960.00,NACK
6726,26046509360.00,Stop
6727,26075969440.00,Start
6728,26075973080.00,Address write: 5A
6729,26075994000.00,ACK
6730,26076006280.00,Command: INTERLEAVE (37)
6731,26076027240.00,ACK
6732,26076038080.00,Start repeat
6733,26076184920.00,Address read: 5A
6734,26076205840.00,ACK
6735,26076403200.00,Data read: 00
6736,26076424200.00,ACK
6737,26076436120.00,Data read: 00
6738,26076457120.00,ACK
6739,26076469000.00,Data read: AF
6740,26076469000.00,PEC OK: AF
6741,26076490040.00,NACK
6742,26076503440.00,Stop
6743,26106966120.00,Start
6744,26106969720.00,Address write: 5A
6745,26106990640.00,ACK
6746,26107002960.00,Command: IOUT_CAL_GAIN (38)
6747,26107023880.00,ACK
6748,26107034680.00,Start repeat
6749,26107184520.00,Address read: 5A
6750,26107205480.00,ACK
6751,26107404760.00,Data read: 00
6752,26107425760.00,ACK
6753,26107437680.00,Data read: 00
6754,26107458720.00,ACK
6755,26107470640.00,Data read: 7D
6756,26107470640.00,PEC OK: 7D
6757,26107491640.00,NACK
6758,26107505040.00,Stop
6759,26139969560.00,Start
6760,26139973200.00,Address write: 5A
6761,26139994160.00,ACK
6762,26140006440.00,Command: IOUT_CAL_OFFSET (39)
6763,26140027360.00,ACK
6764,26140038200.00,Start repeat
6765,26140191040.00,Address read: 5A
6766,26140211960.00,ACK
6767,26140413320.00,Data read: 00
6768,26140434320.00,ACK
6769,26140446240.00,Data read: 00
6770,26140467240.00,ACK
6771,26140479200.00,Data read: 6B
6772,26140479200.00,PEC OK: 6B
6773,26140500200.00,NACK
6774,26140513560.00,Stop
6775,26169965680.00,Start
6776,26169969320.00,Address write: 5A
6777,26169990240.00,ACK
6778,26170002560.00,Command: FAN_CONFIG_1_2 (3A)
6779,26170023480.00,ACK
6780,26170034280.00,Start repeat
6781,26170190040.00,Address read: 5A
6782,26170210960.00,ACK
6783,26170408680.00,Data read: 00
6784,26170429680.00,ACK
6785,26170441600.00,Data read: A8
6786,26170441600.00,PEC OK: A8
6787,26170462600.00,NACK
6788,26170476000.00,Stop
6789,26201970760.00,Start
6790,26201974360.00,Address write: 5A
6791,26201995320.00,ACK
6792,26202007600.00,Command: FAN_COMMAND_1 (3B)
6793,26202028560.00,ACK
6794,26202039400.00,Start repeat
6795,26202198200.00,Address read: 5A
6796,26202219120.00,ACK
6797,26202424360.00,Data read: EE
6798,26202445360.00,ACK
6799,26202457280.00,Data read: 22
6800,26202478280.00,ACK
6801,26202490200.00,Data read: 3C
6802,26202490200.00,PEC OK: 3C
6803,26202511240.00,NACK
6804,26202524600.00,Stop
6805,26233965640.00,Start
6806,26233969240.00,Address write: 5A
6807,26233990160.00,ACK
6808,26234002440.00,Command: FAN_COMMAND_2 (3C)
6809,26234023400.00,ACK
6810,26234034240.00,Start repeat
6811,26234196040.00,Address read: 5A
6812,26234216960.00,ACK
6813,26234424440.00,Data read: E2
6814,26234445440.00,ACK
6815,26234457360.00,Data read: 22
6816,26234478360.00,ACK
6817,26234490320.00,Data read: A2
6818,26234490320.00,PEC OK: A2
6819,26234511320.00,NACK
6820,26234524680.00,Stop
6821,26265971560.00,Start
6822,26265975160.00,Address write: 5A
6823,26265996120.00,ACK
6824,26266008400.00,Command: FAN_CONFIG_3_4 (3D)
6825,26266029360.00,ACK
6826,26266040200.00,Start repeat
6827,26266204920.00,Address read: 5A
6828,26266225840.00,ACK
6829,26266429520.00,Data read: 00
6830,26266450520.00,ACK
6831,26266462440.00,Data read: BE
6832,26266462440.00,PEC OK: BE
6833,26266483440.00,NACK
6834,26266496840.00,Stop
6835,26297969280.00,Start
6836,26297972880.00,Address write: 5A
6837,26297993840.00,ACK
6838,26298006120.00,Command: FAN_COMMAND_3 (3E)
6839,26298027080.00,ACK
6840,26298037880.00,Start repeat
6841,26298205680.00,Address read: 5A
6842,26298226640.00,ACK
6843,26298437880.00,Data read: 00
6844,26298458920.00,ACK
6845,26298491400.00,Data read: 00
6846,26298512440.00,ACK
6847,26298524360.00,Data read: 09
6848,26298524360.00,PEC OK: 09
6849,26298545360.00,NACK
6850,26298558760.00,Stop
6851,26327966880.00,Start
6852,26327970520.00,Address write: 5A
6853,26327991440.00,ACK
6854,26328003760.00,Command: FAN_COMMAND_4 (3F)
6855,26328024720.00,ACK
6856,26328035560.00,Start repeat
6857,26328206320.00,Address read: 5A
6858,26328227280.00,ACK
6859,26328440560.00,Data read: 00
6860,26328461560.00,ACK
6861,26328479800.00,Data read: 00
6862,26328500760.00,ACK
6863,26328512680.00,Data read: 1F
6864,26328512680.00,PEC OK: 1F
6865,26328533680.00,NACK
6866,26328547080.00,Stop
6867,26358965720.00,Start
6868,26358969320.00,Address write: 5A
6869,26358990280.00,ACK
6870,26359002600.00,Command: VOUT_OV_FAULT_LIMIT (40)
6871,26359023480.00,ACK
6872,26359034280.00,Start repeat
6873,26359208080.00,Address read: 5A
6874,26359229040.00,ACK
6875,26359444280.00,Data read: 66
6876,26359465280.00,ACK
6877,26359481560.00,Data read: 1A
6878,26359502560.00,ACK
6879,26359514480.00,Data read: 32
6880,26359514480.00,PEC OK: 32
6881,26359535480.00,NACK
6882,26359548880.00,Stop
6883,26391968960.00,Start
6884,26391972600.00,Address write: 5A
6885,26391993520.00,ACK
6886,26392005800.00,Command: VOUT_OV_FAULT_RESPONSE (41)
6887,26392026720.00,ACK
6888,26392037560.00,Start repeat
6889,26392214240.00,Address read: 5A
6890,26392235200.00,ACK
6891,26392446840.00,Data read: 00
6892,26392467880.00,ACK
6893,26392484160.00,Data read: 23
6894,26392484160.00,PEC OK: 23
6895,26392505160.00,NACK
6896,26392518560.00,Stop
6897,26421972320.00,Start
6898,26421975920.00,Address write: 5A
6899,26421996840.00,ACK
6900,26422009160.00,Command: VOUT_OV_WARN_LIMIT (42)
6901,26422030040.00,ACK
6902,26422040880.00,Start repeat
6903,26422220640.00,Address read: 5A
6904,26422241600.00,ACK
6905,26422465280.00,Data read: 33
6906,26422486280.00,ACK
6907,26422498200.00,Data read: 19
6908,26422519200.00,ACK
6909,26422531120.00,Data read: 5A
6910,26422531120.00,PEC OK: 5A
6911,26422552160.00,NACK
6912,26422565560.00,Stop
6913,26453977920.00,Start
6914,26453981520.00,Address write: 5A
6915,26454002440.00,ACK
6916,26454014760.00,Command: VOUT_UV_WARN_LIMIT (43)
6917,26454035680.00,ACK
6918,26454046520.00,Start repeat
6919,26454229280.00,Address read: 5A
6920,26454250200.00,ACK
6921,26454476080.00,Data read: CD
6922,26454497080.00,ACK
6923,26454509000.00,Data read: 16
6924,26454530040.00,ACK
6925,26454541960.00,Data read: A3
6926,26454541960.00,PEC OK: A3
6927,26454562960.00,NACK
6928,26454576560.00,Stop
6929,26485977000.00,Start
6930,26485980600.00,Address write: 5A
6931,26486001520.00,ACK
6932,26486013840.00,Command: VOUT_UV_FAULT_LIMIT (44)
6933,26486034760.00,ACK
6934,26486045560.00,Start repeat
6935,26486231320.00,Address read: 5A
6936,26486252280.00,ACK
6937,26486480160.00,Data read: 9A
6938,26486501160.00,ACK
6939,26486513120.00,Data read: 15
6940,26486534120.00,ACK
6941,26486546040.00,Data read: AF
6942,26486546040.00,PEC OK: AF
6943,26486567040.00,NACK
6944,26486580440.00,Stop
6945,26517975960.00,Start
6946,26517979600.00,Address write: 5A
6947,26518000520.00,ACK
6948,26518037640.00,Command: VOUT_UV_FAULT_RESPONSE (45)
6949,26518058560.00,ACK
6950,26518069360.00,Start repeat
6951,26518258080.00,Address read: 5A
6952,26518279000.00,ACK
6953,26518498640.00,Data read: 00
6954,26518519640.00,ACK
6955,26518531560.00,Data read: 88
6956,26518531560.00,PEC OK: 88
6957,26518552560.00,NACK
6958,26518566000.00,Stop
6959,26549980560.00,Start
6960,26549984160.00,Address write: 5A
6961,26550005120.00,ACK
6962,26550017400.00,Command: IOUT_OC_FAULT_LIMIT (46)
6963,26550038360.00,ACK
6964,26550049160.00,Start repeat
6965,26550240920.00,Address read: 5A
6966,26550261840.00,ACK
6967,26550489080.00,Data read: 20
6968,26550510120.00,ACK
6969,26550522040.00,Data read: DB
6970,26550543040.00,ACK
6971,26550554960.00,Data read: 2A
6972,26550554960.00,PEC OK: 2A
6973,26550575960.00,NACK
6974,26550589360.00,Stop
6975,26580966000.00,Start
6976,26580969640.00,Address write: 5A
6977,26580990560.00,ACK
6978,26581002840.00,Command: IOUT_OC_FAULT_RESPONSE (47)
6979,26581023800.00,ACK
6980,26581034640.00,Start repeat
6981,26581229280.00,Address read: 5A
6982,26581250240.00,ACK
6983,26581473840.00,Data read: 00
6984,26581494840.00,ACK
6985,26581506760.00,Data read: 5E
6986,26581506760.00,PEC OK: 5E
6987,26581527760.00,NACK
6988,26581541200.00,Stop
6989,26612971080.00,Start
6990,26612974720.00,Address write: 5A
6991,26612995640.00,ACK
6992,26613007920.00,Command: IOUT_OC_LV_FAULT_LIMIT (48)
6993,26613028840.00,ACK
6994,26613039640.00,Start repeat
6995,26613237400.00,Address read: 5A
6996,26613258320.00,ACK
6997,26613489600.00,Data read: 00
6998,26613510560.00,ACK
6999,26613522480.00,Data read: BA
7000,26613543480.00,ACK
7001,26613555400.00,Data read: 60
7002,26613555400.00,PEC OK: 60
7003,26613576400.00,NACK
7004,26613589800.00,Stop
7005,26644964920.00,Start
7006,26644968520.00,Address write: 5A
7007,26644989440.00,ACK
7008,26645001760.00,Command: IOUT_OC_LV_FAULT_RESPONSE (49)
7009,26645022680.00,ACK
7010,26645033480.00,Start repeat
7011,26645234160.00,Address read: 5A
7012,26645255080.00,ACK
7013,26645482720.00,Data read: 00
7014,26645503720.00,ACK
7015,26645515680.00,Data read: 72
7016,26645515680.00,PEC OK: 72
7017,26645536680.00,NACK
7018,26645550040.00,Stop
7019,26676969960.00,Start
7020,26676973560.00,Address write: 5A
7021,26676994520.00,ACK
7022,26677006800.00,Command: IOUT_OC_WARN_LIMIT (4A)
7023,26677027720.00,ACK
7024,26677038520.00,Start repeat
7025,26677242240.00,Address read: 5A
7026,26677263160.00,ACK
7027,26677498400.00,Data read: C0
7028,26677519360.00,ACK
7029,26677531320.00,Data read: DA
7030,26677552320.00,ACK
7031,26677564240.00,Data read: 86
7032,26677564240.00,PEC OK: 86
7033,26677585240.00,NACK
7034,26677598640.00,Stop
7035,26707975040.00,Start
7036,26707978680.00,Address write: 5A
7037,26707999600.00,ACK
7038,26708011920.00,Command: IOUT_UC_FAULT_LIMIT (4B)
7039,26708032840.00,ACK
7040,26708043680.00,Start repeat
7041,26708250360.00,Address read: 5A
7042,26708271320.00,ACK
7043,26708508760.00,Data read: 00
7044,26708529760.00,ACK
7045,26708541680.00,Data read: 00
7046,26708562680.00,ACK
7047,26708574640.00,Data read: 75
7048,26708574640.00,PEC OK: 75
7049,26708595640.00,NACK
7050,26708609040.00,Stop
7051,26739973280.00,Start
7052,26739976920.00,Address write: 5A
7053,26739997840.00,ACK
7054,26740010120.00,Command: IOUT_UC_FAULT_RESPONSE (4C)
7055,26740031040.00,ACK
7056,26740041880.00,Start repeat
7057,26740251520.00,Address read: 5A
7058,26740272440.00,ACK
7059,26740506040.00,Data read: 00
7060,26740527000.00,ACK
7061,26740538920.00,Data read: B2
7062,26740538920.00,PEC OK: B2
7063,26740559880.00,NACK
7064,26740577640.00,Stop
7065,26771972280.00,Start
7066,26771975920.00,Address write: 5A
7067,26771996840.00,ACK
7068,26772009120.00,Command: OT_FAULT_LIMIT (4F)
7069,26772030120.00,ACK
7070,26772040920.00,Start repeat
7071,26772253600.00,Address read: 5A
7072,26772274560.00,ACK
7073,26772515760.00,Data read: 20
7074,26772536760.00,ACK
7075,26772553040.00,Data read: EB
7076,26772574040.00,ACK
7077,26772585960.00,Data read: 1C
7078,26772585960.00,PEC OK: 1C
7079,26772606960.00,NACK
7080,26772620360.00,Stop
7081,26803965960.00,Start
7082,26803969560.00,Address write: 5A
7083,26803990520.00,ACK
7084,26804002800.00,Command: OT_FAULT_RESPONSE (50)
7085,26804023680.00,ACK
7086,26804034520.00,Start repeat
7087,26804250120.00,Address read: 5A
7088,26804271080.00,ACK
7089,26804508720.00,Data read: 00
7090,26804529720.00,ACK
7091,26804546000.00,Data read: EA
7092,26804546000.00,PEC OK: EA
7093,26804567000.00,NACK
7094,26804580400.00,Stop
7095,26835969400.00,Start
7096,26835973000.00,Address write: 5A
7097,26835993960.00,ACK
7098,26836006240.00,Command: OT_WARN_LIMIT (51)
7099,26836027160.00,ACK
7100,26836037960.00,Start repeat
7101,26836256640.00,Address read: 5A
7102,26836277600.00,ACK
7103,26836522840.00,Data read: D0
7104,26836543840.00,ACK
7105,26836560120.00,Data read: EA
7106,26836581120.00,ACK
7107,26836593040.00,Data read: AC
7108,26836593040.00,PEC OK: AC
7109,26836614040.00,NACK
7110,26836627440.00,Stop
7111,26865976400.00,Start
7112,26865980000.00,Address write: 5A
7113,26866000960.00,ACK
7114,26866013240.00,Command: UT_WARN_LIMIT (52)
7115,26866034200.00,ACK
7116,26866044960.00,Start repeat
7117,26866266640.00,Address read: 5A
7118,26866287600.00,ACK
7119,26866545240.00,Data read: 00
7120,26866566240.00,ACK
7121,26866578200.00,Data read: 80
7122,26866599200.00,ACK
7123,26866611080.00,Data read: 3D
7124,26866611080.00,PEC OK: 3D
7125,26866632120.00,NACK
7126,26866645520.00,Stop
7127,26896971880.00,Start
7128,26896975520.00,Address write: 5A
7129,26896996440.00,ACK
7130,26897008720.00,Command: UT_FAULT_LIMIT (53)
7131,26897029680.00,ACK
7132,26897040520.00,Start repeat
7133,26897265160.00,Address read: 5A
7134,26897286080.00,ACK
7135,26897541680.00,Data read: 80
7136,26897562680.00,ACK
7137,26897574600.00,Data read: D5
7138,26897595600.00,ACK
7139,26897607520.00,PEC OK: 31
7140,26897607520.00,Data read: 31
7141,26897628520.00,NACK
7142,26897641920.00,Stop
7143,26928966640.00,Start
7144,26928970240.00,Address write: 5A
7145,26928991160.00,ACK
7146,26929003480.00,Command: UT_FAULT_RESPONSE (54)
7147,26929024400.00,ACK
7148,26929035240.00,Start repeat
7149,26929262840.00,Address read: 5A
7150,26929283760.00,ACK
7151,26929533720.00,Data read: 00
7152,26929554720.00,ACK
7153,26929566880.00,Data read: 41
7154,26929566880.00,PEC OK: 41
7155,26929587880.00,NACK
7156,26929601280.00,Stop
7157,26961974240.00,Start
7158,26961977880.00,Address write: 5A
7159,26961998800.00,ACK
7160,26962011120.00,Command: VIN_OV_FAULT_LIMIT (55)
7161,26962032040.00,ACK
7162,26962042880.00,Start repeat
7163,26962273520.00,Address read: 5A
7164,26962294440.00,ACK
7165,26962552240.00,Data read: 10
7166,26962573240.00,ACK
7167,26962585160.00,Data read: FA
7168,26962606160.00,ACK
7169,26962618080.00,Data read: 69
7170,26962618080.00,PEC OK: 69
7171,26962639080.00,NACK
7172,26962652480.00,Stop
7173,26992972000.00,Start
7174,26992975600.00,Address write: 5A
7175,26992996520.00,ACK
7176,26993008840.00,Command: VIN_OV_FAULT_RESPONSE (56)
7177,26993029760.00,ACK
7178,26993045000.00,Start repeat
7179,26993278600.00,Address read: 5A
7180,26993299560.00,ACK
7181,26993549400.00,Data read: 00
7182,26993570400.00,ACK
7183,26993582320.00,Data read: 97
7184,26993582320.00,PEC OK: 97
7185,26993603320.00,NACK
7186,26993616720.00,Stop
7187,27024968400.00,Start
7188,27024972040.00,Address write: 5A
7189,27024992960.00,ACK
7190,27025005240.00,Command: VIN_OV_WARN_LIMIT (57)
7191,27025026240.00,ACK
7192,27025037040.00,Start repeat
7193,27025273680.00,Address read: 5A
7194,27025294640.00,ACK
7195,27025551840.00,Data read: E8
7196,27025572840.00,ACK
7197,27025584800.00,Data read: F3
7198,27025605760.00,ACK
7199,27025617680.00,Data read: C6
7200,27025617680.00,PEC OK: C6
7201,27025638720.00,NACK
7202,27025652080.00,Stop
7203,27057972360.00,Start
7204,27057976000.00,Address write: 5A
7205,27057996920.00,ACK
7206,27058009200.00,Command: VIN_UV_WARN_LIMIT (58)
7207,27058030120.00,ACK
7208,27058040960.00,Start repeat
7209,27058280600.00,Address read: 5A
7210,27058301520.00,ACK
7211,27058560680.00,Data read: D0
7212,27058581680.00,ACK
7213,27058593600.00,Data read: F2
7214,27058614640.00,ACK
7215,27058626560.00,Data read: 42
7216,27058626560.00,PEC OK: 42
7217,27058647520.00,NACK
7218,27058660960.00,Stop
7219,27086969400.00,Start
7220,27086973040.00,Address write: 5A
7221,27086993960.00,ACK
7222,27087006280.00,Command: VIN_UV_FAULT_LIMIT (59)
7223,27087027240.00,ACK
7224,27087038040.00,Start repeat
7225,27087280680.00,Address read: 5A
7226,27087301600.00,ACK
7227,27087562840.00,Data read: A8
7228,27087583840.00,ACK
7229,27087595760.00,Data read: F2
7230,27087616760.00,ACK
7231,27087628680.00,Data read: 5E
7232,27087628680.00,PEC OK: 5E
7233,27087649680.00,NACK
7234,27087663080.00,Stop
7235,27118976920.00,Start
7236,27118980560.00,Address write: 5A
7237,27119001480.00,ACK
7238,27119013760.00,Command: VIN_UV_FAULT_RESPONSE (5A)
7239,27119034720.00,ACK
7240,27119045520.00,Start repeat
7241,27119291040.00,Address read: 5A
7242,27119312000.00,ACK
7243,27119569520.00,Data read: 00
7244,27119590560.00,ACK
7245,27119602480.00,Data read: 6D
7246,27119602480.00,PEC OK: 6D
7247,27119623440.00,NACK
7248,27119636880.00,Stop
7249,27149973880.00,Start
7250,27149977480.00,Address write: 5A
7251,27149998440.00,ACK
7252,27150010720.00,Command: IIN_OC_FAULT_LIMIT (5B)
7253,27150031680.00,ACK
7254,27150042480.00,Start repeat
7255,27150291120.00,Address read: 5A
7256,27150312080.00,ACK
7257,27150577240.00,Data read: 00
7258,27150598240.00,ACK
7259,27150610160.00,Data read: C3
7260,27150631160.00,ACK
7261,27150643080.00,Data read: 55
7262,27150643080.00,PEC OK: 55
7263,27150664080.00,NACK
7264,27150677480.00,Stop
7265,27182970440.00,Start
7266,27182974040.00,Address write: 5A
7267,27182994960.00,ACK
7268,27183007280.00,Command: IIN_OC_FAULT_RESPONSE (5C)
7269,27183028200.00,ACK
7270,27183039240.00,Start repeat
7271,27183290800.00,Address read: 5A
7272,27183311720.00,ACK
7273,27183573280.00,Data read: 00
7274,27183594280.00,ACK
7275,27183606200.00,Data read: 10
7276,27183606200.00,PEC OK: 10
7277,27183627200.00,NACK
7278,27183644920.00,Stop
7279,27212973840.00,Start
7280,27212977440.00,Address write: 5A
7281,27212998360.00,ACK
7282,27213010680.00,Command: IIN_OC_WARN_LIMIT (5D)
7283,27213031640.00,ACK
7284,27213042440.00,Start repeat
7285,27213297080.00,Address read: 5A
7286,27213318000.00,ACK
7287,27213587200.00,Data read: 80
7288,27213608200.00,ACK
7289,27213624480.00,Data read: C2
7290,27213645480.00,ACK
7291,27213657400.00,Data read: 90
7292,27213657400.00,PEC OK: 90
7293,27213678400.00,NACK
7294,27213691800.00,Stop
7295,27246977840.00,Start
7296,27246981480.00,Address write: 5A
7297,27247002400.00,ACK
7298,27247014720.00,Command: POWER_GOOD_ON (5E)
7299,27247035640.00,ACK
7300,27247046480.00,Start repeat
7301,27247304080.00,Address read: 5A
7302,27247325040.00,ACK
7303,27247596160.00,Data read: 00
7304,27247617200.00,ACK
7305,27247633480.00,Data read: 16
7306,27247654480.00,ACK
7307,27247666400.00,Data read: 3E
7308,27247666400.00,PEC OK: 3E
7309,27247687360.00,NACK
7310,27247700800.00,Stop
7311,27276976360.00,Start
7312,27276980000.00,Address write: 5A
7313,27277000920.00,ACK
7314,27277013200.00,Command: POWER_GOOD_OFF (5F)
7315,27277034200.00,ACK
7316,27277045040.00,Start repeat
7317,27277305600.00,Address read: 5A
7318,27277326560.00,ACK
7319,27277599720.00,Data read: 00
7320,27277620760.00,ACK
7321,27277637040.00,Data read: 14
7322,27277658040.00,ACK
7323,27277669960.00,Data read: 26
7324,27277669960.00,PEC OK: 26
7325,27277690960.00,NACK
7326,27277704360.00,Stop
7327,27308979040.00,Start
7328,27308982680.00,Address write: 5A
7329,27309003600.00,ACK
7330,27309015880.00,Command: TON_DELAY (60)
7331,27309036760.00,ACK
7332,27309047600.00,Start repeat
7333,27309311200.00,Address read: 5A
7334,27309332120.00,ACK
7335,27309607240.00,Data read: 20
7336,27309628240.00,ACK
7337,27309644560.00,Data read: EB
7338,27309665560.00,ACK
7339,27309677480.00,Data read: 00
7340,27309677480.00,PEC OK: 00
7341,27309698480.00,NACK
7342,27309711880.00,Stop
7343,27339971440.00,Start
7344,27339975080.00,Address write: 5A
7345,27339996000.00,ACK
7346,27340008320.00,Command: TON_RISE (61)
7347,27340029240.00,ACK
7348,27340040040.00,Start repeat
7349,27340306680.00,Address read: 5A
7350,27340327600.00,ACK
7351,27340609200.00,Data read: 20
7352,27340630160.00,ACK
7353,27340642120.00,Data read: F3
7354,27340663080.00,ACK
7355,27340675000.00,Data read: 5E
7356,27340675000.00,PEC OK: 5E
7357,27340696000.00,NACK
7358,27340709440.00,Stop
7359,27372975960.00,Start
7360,27372979600.00,Address write: 5A
7361,27373000520.00,ACK
7362,27373012800.00,Command: TON_MAX_FAULT_LIMIT (62)
7363,27373033720.00,ACK
7364,27373044560.00,Start repeat
7365,27373314120.00,Address read: 5A
7366,27373335040.00,ACK
7367,27373618600.00,Data read: E8
7368,27373639600.00,ACK
7369,27373651520.00,Data read: FB
7370,27373672520.00,ACK
7371,27373684440.00,Data read: 19
7372,27373684440.00,PEC OK: 19
7373,27373705440.00,NACK
7374,27373718800.00,Stop
7375,27403978440.00,Start
7376,27403982040.00,Address write: 5A
7377,27404003000.00,ACK
7378,27404015280.00,Command: TON_MAX_FAULT_RESPONSE (63)
7379,27404036200.00,ACK
7380,27404047040.00,Start repeat
7381,27404319560.00,Address read: 5A
7382,27404340520.00,ACK
7383,27404620640.00,Data read: 00
7384,27404641640.00,ACK
7385,27404653520.00,Data read: B6
7386,27404653520.00,PEC OK: B6
7387,27404674560.00,NACK
7388,27404687920.00,Stop
7389,27434979640.00,Start
7390,27434983240.00,Address write: 5A
7391,27435004200.00,ACK
7392,27435016480.00,Command: TOFF_DELAY (64)
7393,27435037400.00,ACK
7394,27435048240.00,Start repeat
7395,27435323800.00,Address read: 5A
7396,27435344720.00,ACK
7397,27435632280.00,Data read: 20
7398,27435653280.00,ACK
7399,27435665200.00,Data read: EB
7400,27435686200.00,ACK
7401,27435698120.00,PEC OK: 58
7402,27435698120.00,Data read: 58
7403,27435719120.00,NACK
7404,27435732520.00,Stop
7405,27468976520.00,Start
7406,27468980120.00,Address write: 5A
7407,27469001080.00,ACK
7408,27469013360.00,Command: TOFF_FALL (65)
7409,27469034280.00,ACK
7410,27469055200.00,Start repeat
7411,27469333800.00,Address read: 5A
7412,27469354720.00,ACK
7413,27469640040.00,Data read: 20
7414,27469661080.00,ACK
7415,27469673000.00,Data read: F3
7416,27469693960.00,ACK
7417,27469705920.00,Data read: 06
7418,27469705920.00,PEC OK: 06
7419,27469726880.00,NACK
7420,27469740280.00,Stop
7421,27512972440.00,Start
7422,27512976040.00,Address write: 5A
7423,27512997000.00,ACK
7424,27513009280.00,Command: TOFF_MAX_WARN_LIMIT (66)
7425,27513030240.00,ACK
7426,27513041040.00,Start repeat
7427,27513322600.00,Address read: 5A
7428,27513343560.00,ACK
7429,27513630960.00,Data read: E8
7430,27513651960.00,ACK
7431,27513663880.00,Data read: FB
7432,27513684880.00,ACK
7433,27513696800.00,Data read: 41
7434,27513696800.00,PEC OK: 41
7435,27513717800.00,NACK
7436,27513731200.00,Stop
7437,27544970840.00,Start
7438,27544974480.00,Address write: 5A
7439,27544995400.00,ACK
7440,27545007680.00,Command: POUT_OP_FAULT_LIMIT (68)
7441,27545028640.00,ACK
7442,27545039440.00,Start repeat
7443,27545324040.00,Address read: 5A
7444,27545344960.00,ACK
7445,27545634120.00,Data read: 80
7446,27545655120.00,ACK
7447,27545667040.00,Data read: FA
7448,27545688040.00,ACK
7449,27545699960.00,Data read: DF
7450,27545699960.00,PEC OK: DF
7451,27545721000.00,NACK
7452,27545734360.00,Stop
7453,27576982280.00,Start
7454,27576985920.00,Address write: 5A
7455,27577006840.00,ACK
7456,27577019120.00,Command: POUT_OP_FAULT_RESPONSE (69)
7457,27577040080.00,ACK
7458,27577050880.00,Start repeat
7459,27577338360.00,Address read: 5A
7460,27577359320.00,ACK
7461,27577644880.00,Data read: 00
7462,27577665880.00,ACK
7463,27577677800.00,PEC OK: 31
7464,27577677800.00,Data read: 31
7465,27577698800.00,NACK
7466,27577712200.00,Stop
7467,27607978440.00,Start
7468,27607982040.00,Address write: 5A
7469,27608002960.00,ACK
7470,27608015280.00,Command: POUT_OP_WARN_LIMIT (6A)
7471,27608036200.00,ACK
7472,27608047040.00,Start repeat
7473,27608337560.00,Address read: 5A
7474,27608358480.00,ACK
7475,27608651640.00,Data read: 58
7476,27608672640.00,ACK
7477,27608684560.00,Data read: FA
7478,27608705560.00,ACK
7479,27608717480.00,Data read: E1
7480,27608717480.00,PEC OK: E1
7481,27608738480.00,NACK
7482,27608775520.00,Stop
7483,27640979760.00,Start
7484,27640983400.00,Address write: 5A
7485,27641004320.00,ACK
7486,27641016600.00,Command: PIN_OP_WARN_LIMIT (6B)
7487,27641037560.00,ACK
7488,27641048400.00,Start repeat
7489,27641341960.00,Address read: 5A
7490,27641362880.00,ACK
7491,27641658000.00,Data read: 94
7492,27641679000.00,ACK
7493,27641707320.00,Data read: FA
7494,27641728320.00,ACK
7495,27641740240.00,PEC OK: E6
7496,27641740240.00,Data read: E6
7497,27641761240.00,NACK
7498,27641774640.00,Stop
7499,27671974640.00,Start
7500,27671978240.00,Address write: 5A
7501,27671999200.00,ACK
7502,27672011480.00,Command: STATUS_BYTE (78)
7503,27672032400.00,ACK
7504,27672043240.00,Start repeat
7505,27672339720.00,Address read: 5A
7506,27672360680.00,ACK
7507,27672652160.00,Data read: 80
7508,27672673160.00,ACK
7509,27672689480.00,Data read: 71
7510,27672689480.00,PEC OK: 71
7511,27672710480.00,NACK
7512,27672723880.00,Stop
7513,27702977200.00,Start
7514,27702980840.00,Address write: 5A
7515,27703001760.00,ACK
7516,27703014040.00,Command: STATUS_WORD (79)
7517,27703035000.00,ACK
7518,27703045840.00,Start repeat
7519,27703345360.00,Address read: 5A
7520,27703366280.00,ACK
7521,27703665440.00,Data read: 80
7522,27703686440.00,ACK
7523,27703702720.00,Data read: 00
7524,27703723720.00,ACK
7525,27703735640.00,Data read: 46
7526,27703735640.00,PEC OK: 46
7527,27703756640.00,NACK
7528,27703770040.00,Stop
7529,27734977520.00,Start
7530,27734981120.00,Address write: 5A
7531,27735002040.00,ACK
7532,27735014360.00,Command: STATUS_VOUT (7A)
7533,27735035320.00,ACK
7534,27735046160.00,Start repeat
7535,27735348640.00,Address read: 5A
7536,27735369560.00,ACK
7537,27735665040.00,Data read: 00
7538,27735686080.00,ACK
7539,27735704320.00,Data read: 2E
7540,27735704320.00,PEC OK: 2E
7541,27735725320.00,NACK
7542,27735738720.00,Stop
7543,27766972160.00,Start
7544,27766975800.00,Address write: 5A
7545,27766996720.00,ACK
7546,27767009040.00,Command: STATUS_IOUT (7B)
7547,27767030000.00,ACK
7548,27767040840.00,Start repeat
7549,27767346280.00,Address read: 5A
7550,27767367200.00,ACK
7551,27767664680.00,Data read: 00
7552,27767685720.00,ACK
7553,27767702000.00,Data read: 45
7554,27767702000.00,PEC OK: 45
7555,27767723000.00,NACK
7556,27767736400.00,Stop
7557,27798977640.00,Start
7558,27798981240.00,Address write: 5A
7559,27799002160.00,ACK
7560,27799014440.00,Command: STATUS_INPUT (7C)
7561,27799035440.00,ACK
7562,27799046240.00,Start repeat
7563,27799354680.00,Address read: 5A
7564,27799375640.00,ACK
7565,27799679560.00,Data read: 00
7566,27799700560.00,ACK
7567,27799712480.00,Data read: 53
7568,27799712480.00,PEC OK: 53
7569,27799733480.00,NACK
7570,27799746880.00,Stop
7571,27829980920.00,Start
7572,27829984560.00,Address write: 5A
7573,27830005480.00,ACK
7574,27830017800.00,Command: STATUS_TEMPERATURE (7D)
7575,27830038760.00,ACK
7576,27830049560.00,Start repeat
7577,27830361040.00,Address read: 5A
7578,27830381960.00,ACK
7579,27830687840.00,Data read: 00
7580,27830708840.00,ACK
7581,27830720760.00,PEC OK: 38
7582,27830720760.00,Data read: 38
7583,27830741760.00,NACK
7584,27830755160.00,Stop
7585,27862984040.00,Start
7586,27862987640.00,Address write: 5A
7587,27863008560.00,ACK
7588,27863020880.00,Command: STATUS_CML (7E)
7589,27863041880.00,ACK
7590,27863052680.00,Start repeat
7591,27863367120.00,Address read: 5A
7592,27863388080.00,ACK
7593,27863696000.00,Data read: 00
7594,27863716960.00,ACK
7595,27863728880.00,PEC OK: 85
7596,27863728880.00,Data read: 85
7597,27863749880.00,NACK
7598,27863763320.00,Stop
7599,27893976920.00,Start
7600,27893980520.00,Address write: 5A
7601,27894001480.00,ACK
7602,27894013760.00,Command: STATUS_OTHER (7F)
7603,27894034760.00,ACK
7604,27894045560.00,Start repeat
7605,27894363040.00,Address read: 5A
7606,27894383960.00,ACK
7607,27894694080.00,Data read: 00
7608,27894715080.00,ACK
7609,27894727000.00,Data read: EE
7610,27894727000.00,PEC OK: EE
7611,27894748000.00,NACK
7612,27894761400.00,Stop
7613,27924979600.00,Start
7614,27924983240.00,Address write: 5A
7615,27925004160.00,ACK
7616,27925016440.00,Command: STATUS_MFR_SPECIFIC (80)
7617,27925037320.00,ACK
7618,27925048120.00,Start repeat
7619,27925368560.00,Address read: 5A
7620,27925389480.00,ACK
7621,27925703360.00,Data read: 00
7622,27925724360.00,ACK
7623,27925736280.00,PEC OK: C5
7624,27925736280.00,Data read: C5
7625,27925757280.00,NACK
7626,27925770680.00,Stop
7627,27956977800.00,Start
7628,27956981440.00,Address write: 5A
7629,27957002360.00,ACK
7630,27957014640.00,Command: STATUS_FANS_1_2 (81)
7631,27957035560.00,ACK
7632,27957068800.00,Start repeat
7633,27957392240.00,Address read: 5A
7634,27957413160.00,ACK
7635,27957722640.00,Data read: 00
7636,27957743640.00,ACK
7637,27957755560.00,PEC OK: AE
7638,27957755560.00,Data read: AE
7639,27957776560.00,NACK
7640,27957789960.00,Stop
7641,27988983960.00,Start
7642,27988987600.00,Address write: 5A
7643,27989008520.00,ACK
7644,27989020800.00,Command: STATUS_FANS_3_4 (82)
7645,27989041680.00,ACK
7646,27989052520.00,Start repeat
7647,27989378920.00,Address read: 5A
7648,27989399880.00,ACK
7649,27989711240.00,Data read: 00
7650,27989732240.00,ACK
7651,27989744200.00,PEC OK: 13
7652,27989744200.00,Data read: 13
7653,27989765200.00,NACK
7654,27989778600.00,Stop
7655,28019975960.00,Start
7656,28019979560.00,Address write: 5A
7657,28020000520.00,ACK
7658,28020012800.00,Command: READ_KWH_IN (83)
7659,28020033720.00,ACK
7660,28020044520.00,Start repeat
7661,28020374000.00,Address read: 5A
7662,28020394920.00,ACK
7663,28020723440.00,Data read: 00
7664,28020744440.00,ACK
7665,28020756360.00,Data read: 00
7666,28020777360.00,ACK
7667,28020789280.00,Data read: 00
7668,28020810280.00,ACK
7669,28020822200.00,Data read: 00
7670,28020843200.00,ACK
7671,28020855120.00,Data read: 36
7672,28020855120.00,PEC OK: 36
7673,28020876120.00,NACK
7674,28020889520.00,Stop
7675,28051975320.00,Start
7676,28051978920.00,Address write: 5A
7677,28051999840.00,ACK
7678,28052012160.00,Command: READ_KWH_OUT (84)
7679,28052033040.00,ACK
7680,28052043840.00,Start repeat
7681,28052376280.00,Address read: 5A
7682,28052397240.00,ACK
7683,28052727680.00,Data read: 00
7684,28052748680.00,ACK
7685,28052760600.00,Data read: 00
7686,28052781600.00,ACK
7687,28052793520.00,Data read: 00
7688,28052814520.00,ACK
7689,28052826480.00,Data read: 00
7690,28052847440.00,ACK
7691,28052876840.00,Data read: E9
7692,28052876840.00,PEC OK: E9
7693,28052897840.00,NACK
7694,28052911240.00,Stop
7695,28082983680.00,Start
7696,28082987280.00,Address write: 5A
7697,28083008240.00,ACK
7698,28083020520.00,Command: READ_KWH_CONFIG (85)
7699,28083041400.00,ACK
7700,28083052240.00,Start repeat
7701,28083387680.00,Address read: 5A
7702,28083408640.00,ACK
7703,28083731360.00,Data read: 00
7704,28083752360.00,ACK
7705,28083764280.00,Data read: 00
7706,28083785280.00,ACK
7707,28083813120.00,Data read: 1B
7708,28083813120.00,PEC OK: 1B
7709,28083834120.00,NACK
7710,28083847520.00,Stop
7711,28114979640.00,Start
7712,28114983480.00,Address write: 5A
7713,28115004400.00,ACK
7714,28115016720.00,Command: READ_EIN (86)
7715,28115037640.00,ACK
7716,28115048440.00,Start repeat
7717,28115386880.00,Address read: 5A
7718,28115407840.00,ACK
7719,28115762120.00,Data read: 06
7720,28115783160.00,ACK
7721,28115799440.00,Data read: 70
7722,28115820440.00,ACK
7723,28115832360.00,Data read: 51
7724,28115853360.00,ACK
7725,28115865280.00,Data read: 32
7726,28115886280.00,ACK
7727,28115898200.00,Data read: AC
7728,28115919200.00,ACK
7729,28115931120.00,Data read: 2E
7730,28115952120.00,ACK
7731,28115964040.00,Data read: 00
7732,28115985040.00,ACK
7733,28115996960.00,Data read: CE
7734,28115996960.00,PEC OK: CE
7735,28116017960.00,NACK
7736,28116031360.00,Stop
7737,28147981480.00,Start
7738,28147985320.00,Address write: 5A
7739,28148006240.00,ACK
7740,28148018520.00,Command: READ_EOUT (87)
7741,28148039440.00,ACK
7742,28148050280.00,Start repeat
7743,28148391720.00,Address read: 5A
7744,28148412640.00,ACK
7745,28148768800.00,Data read: 06
7746,28148789800.00,ACK
7747,28148806080.00,Data read: 7E
7748,28148827120.00,ACK
7749,28148839040.00,Data read: 7D
7750,28148860040.00,ACK
7751,28148871960.00,Data read: 28
7752,28148892960.00,ACK
7753,28148904880.00,Data read: B1
7754,28148925880.00,ACK
7755,28148937800.00,Data read: 2E
7756,28148958800.00,ACK
7757,28148970720.00,Data read: 00
7758,28148991720.00,ACK
7759,28149003640.00,Data read: 34
7760,28149003640.00,PEC OK: 34
7761,28149024640.00,NACK
7762,28149038080.00,Stop
7763,28182985720.00,Start
7764,28182989360.00,Address write: 5A
7765,28183010280.00,ACK
7766,28183022600.00,Command: READ_VIN (88)
7767,28183043440.00,ACK
7768,28183054240.00,Start repeat
7769,28183398680.00,Address read: 5A
7770,28183419640.00,ACK
7771,28183748680.00,Data read: 98
7772,28183769680.00,ACK
7773,28183785960.00,Data read: F3
7774,28183806960.00,ACK
7775,28183818920.00,Data read: 7B
7776,28183818920.00,PEC OK: 7B
7777,28183839880.00,NACK
7778,28183853320.00,Stop
7779,28228982240.00,Start
7780,28228985880.00,Address write: 5A
7781,28229006800.00,ACK
7782,28229019080.00,Command: READ_IIN (89)
7783,28229040000.00,ACK
7784,28229050840.00,Start repeat
7785,28229398240.00,Address read: 5A
7786,28229419160.00,ACK
7787,28229750240.00,Data read: 80
7788,28229771240.00,ACK
7789,28229787520.00,Data read: BA
7790,28229808560.00,ACK
7791,28229820480.00,Data read: 6A
7792,28229820480.00,PEC OK: 6A
7793,28229841440.00,NACK
7794,28229854840.00,Stop
7795,28259987440.00,Start
7796,28259991080.00,Address write: 5A
7797,28260012000.00,ACK
7798,28260024280.00,Command: READ_VCAP (8A)
7799,28260045200.00,ACK
7800,28260056000.00,Start repeat
7801,28260406400.00,Address read: 5A
7802,28260427320.00,ACK
7803,28260772000.00,Data read: 98
7804,28260793040.00,ACK
7805,28260804960.00,Data read: F3
7806,28260825960.00,ACK
7807,28260837880.00,Data read: 57
7808,28260837880.00,PEC OK: 57
7809,28260858880.00,NACK
7810,28260872280.00,Stop
7811,28290987480.00,Start
7812,28290991120.00,Address write: 5A
7813,28291012040.00,ACK
7814,28291024360.00,Command: READ_VOUT (8B)
7815,28291045240.00,ACK
7816,28291056080.00,Start repeat
7817,28291409480.00,Address read: 5A
7818,28291430400.00,ACK
7819,28291769840.00,Data read: 00
7820,28291790840.00,ACK
7821,28291802800.00,Data read: 18
7822,28291823800.00,ACK
7823,28291835720.00,Data read: 97
7824,28291835720.00,PEC OK: 97
7825,28291856720.00,NACK
7826,28291870120.00,Stop
7827,28322988600.00,Start
7828,28322992240.00,Address write: 5A
7829,28323013160.00,ACK
7830,28323025440.00,Command: READ_IOUT (8C)
7831,28323046360.00,ACK
7832,28323057200.00,Start repeat
7833,28323413600.00,Address read: 5A
7834,28323434520.00,ACK
7835,28323776160.00,Data read: 50
7836,28323797200.00,ACK
7837,28323809120.00,Data read: DA
7838,28323830120.00,ACK
7839,28323842040.00,Data read: B9
7840,28323842040.00,PEC OK: B9
7841,28323863040.00,NACK
7842,28323876440.00,Stop
7843,28353989320.00,Start
7844,28353992920.00,Address write: 5A
7845,28354013840.00,ACK
7846,28354026160.00,Command: READ_TEMPERATURE_1 (8D)
7847,28354047080.00,ACK
7848,28354057920.00,Start repeat
7849,28354417320.00,Address read: 5A
7850,28354438240.00,ACK
7851,28354783680.00,Data read: 30
7852,28354804680.00,ACK
7853,28354816600.00,Data read: E2
7854,28354837600.00,ACK
7855,28354849560.00,Data read: F2
7856,28354849560.00,PEC OK: F2
7857,28354870560.00,NACK
7858,28354883960.00,Stop
7859,28385991080.00,Start
7860,28385994680.00,Address write: 5A
7861,28386015640.00,ACK
7862,28386027960.00,Command: READ_TEMPERATURE_2 (8E)
7863,28386048880.00,ACK
7864,28386059680.00,Start repeat
7865,28386422040.00,Address read: 5A
7866,28386443000.00,ACK
7867,28386788480.00,Data read: B0
7868,28386809480.00,ACK
7869,28386821400.00,Data read: E2
7870,28386842360.00,ACK
7871,28386854320.00,Data read: 7E
7872,28386854320.00,PEC OK: 7E
7873,28386875320.00,NACK
7874,28386888720.00,Stop
7875,28417982040.00,Start
7876,28417985640.00,Address write: 5A
7877,28418006560.00,ACK
7878,28418018880.00,Command: READ_TEMPERATURE_3 (8F)
7879,28418039800.00,ACK
7880,28418050600.00,Start repeat
7881,28418415960.00,Address read: 5A
7882,28418436920.00,ACK
7883,28418784320.00,Data read: 20
7884,28418805320.00,ACK
7885,28418817240.00,Data read: E3
7886,28418838240.00,ACK
7887,28418850200.00,Data read: 8E
7888,28418850200.00,PEC OK: 8E
7889,28418871200.00,NACK
7890,28418884600.00,Stop
7891,28448987480.00,Start
7892,28448991120.00,Address write: 5A
7893,28449012040.00,ACK
7894,28449024320.00,Command: READ_FAN_SPEED_1 (90)
7895,28449045200.00,ACK
7896,28449060480.00,Start repeat
7897,28449428840.00,Address read: 5A
7898,28449449760.00,ACK
7899,28449794840.00,Data read: EE
7900,28449815840.00,ACK
7901,28449827760.00,Data read: 22
7902,28449848760.00,ACK
7903,28449860680.00,Data read: 49
7904,28449860680.00,PEC OK: 49
7905,28449881680.00,NACK
7906,28449895040.00,Stop
7907,28481988880.00,Start
7908,28481992520.00,Address write: 5A
7909,28482013440.00,ACK
7910,28482025760.00,Command: READ_FAN_SPEED_2 (91)
7911,28482046640.00,ACK
7912,28482057440.00,Start repeat
7913,28482428840.00,Address read: 5A
7914,28482449760.00,ACK
7915,28482796800.00,Data read: E2
7916,28482817800.00,ACK
7917,28482829720.00,Data read: 22
7918,28482850720.00,ACK
7919,28482862640.00,Data read: A3
7920,28482862640.00,PEC OK: A3
7921,28482883640.00,NACK
7922,28482897040.00,Stop
7923,28512982040.00,Start
7924,28512985680.00,Address write: 5A
7925,28513006600.00,ACK
7926,28513018920.00,Command: READ_FAN_SPEED_3 (92)
7927,28513039840.00,ACK
7928,28513050640.00,Start repeat
7929,28513425000.00,Address read: 5A
7930,28513445920.00,ACK
7931,28513794840.00,Data read: 00
7932,28513815840.00,ACK
7933,28513827760.00,Data read: 00
7934,28513848760.00,ACK
7935,28513860680.00,Data read: 1E
7936,28513860680.00,PEC OK: 1E
7937,28513881680.00,NACK
7938,28513895080.00,Stop
7939,28543983960.00,Start
7940,28543987600.00,Address write: 5A
7941,28544008520.00,ACK
7942,28544020840.00,Command: READ_FAN_SPEED_4 (93)
7943,28544041760.00,ACK
7944,28544052560.00,Start repeat
7945,28544429920.00,Address read: 5A
7946,28544450880.00,ACK
7947,28544801760.00,Data read: 00
7948,28544822760.00,ACK
7949,28544834880.00,Data read: 00
7950,28544855880.00,ACK
7951,28544872200.00,Data read: 08
7952,28544872200.00,PEC OK: 08
7953,28544893200.00,NACK
7954,28544906600.00,Stop
7955,28576984400.00,Start
7956,28576988040.00,Address write: 5A
7957,28577008960.00,ACK
7958,28577021240.00,Command: READ_DUTY_CYCLE (94)
7959,28577042160.00,ACK
7960,28577052960.00,Start repeat
7961,28577433280.00,Address read: 5A
7962,28577454240.00,ACK
7963,28577806920.00,Data read: 00
7964,28577827920.00,ACK
7965,28577844200.00,Data read: 00
7966,28577865160.00,ACK
7967,28577877120.00,Data read: 6A
7968,28577877120.00,PEC OK: 6A
7969,28577898080.00,NACK
7970,28577911480.00,Stop
7971,28622988800.00,Start
7972,28622992400.00,Address write: 5A
7973,28623013360.00,ACK
7974,28623025680.00,Command: READ_FREQUENCY (95)
7975,28623046560.00,ACK
7976,28623057400.00,Start repeat
7977,28623440720.00,Address read: 5A
7978,28623461640.00,ACK
7979,28623816680.00,Data read: 0D
7980,28623837680.00,ACK
7981,28623855920.00,Data read: 3B
7982,28623876920.00,ACK
7983,28623888840.00,Data read: 34
7984,28623888840.00,PEC OK: 34
7985,28623909840.00,NACK
7986,28623923240.00,Stop
7987,28653987280.00,Start
7988,28653990920.00,Address write: 5A
7989,28654011840.00,ACK
7990,28654024120.00,Command: READ_POUT (96)
7991,28654045040.00,ACK
7992,28654055880.00,Start repeat
7993,28654442240.00,Address read: 5A
7994,28654463160.00,ACK
7995,28654820200.00,Data read: 78
7996,28654841200.00,ACK
7997,28654857480.00,Data read: F3
7998,28654878480.00,ACK
7999,28654890400.00,Data read: 9B
8000,28654890400.00,PEC OK: 9B
8001,28654911400.00,NACK
8002,28654924800.00,Stop
8003,28685988200.00,Start
8004,28685991840.00,Address write: 5A
8005,28686012760.00,ACK
8006,28686025080.00,Command: READ_PIN (97)
8007,28686046040.00,ACK
8008,28686056840.00,Start repeat
8009,28686446160.00,Address read: 5A
8010,28686467120.00,ACK
8011,28686826160.00,Data read: 28
8012,28686847120.00,ACK
8013,28686863440.00,Data read: FA
8014,28686884440.00,ACK
8015,28686896400.00,Data read: BE
8016,28686896400.00,PEC OK: BE
8017,28686917400.00,NACK
8018,28686930800.00,Stop
8019,28717985280.00,Start
8020,28717988880.00,Address write: 5A
8021,28718009800.00,ACK
8022,28718022120.00,Command: PMBUS_REVISION (98)
8023,28718043000.00,ACK
8024,28718053840.00,Start repeat
8025,28718446120.00,Address read: 5A
8026,28718467040.00,ACK
8027,28718822200.00,Data read: 33
8028,28718843200.00,ACK
8029,28718859480.00,Data read: AF
8030,28718859480.00,PEC OK: AF
8031,28718880480.00,NACK
8032,28718893880.00,Stop
8033,28748982920.00,Start
8034,28748986760.00,Address write: 5A
8035,28749007680.00,ACK
8036,28749020000.00,Command: MFR_ID (99)
8037,28749040920.00,ACK
8038,28749051760.00,Start repeat
8039,28749447040.00,Address read: 5A
8040,28749468000.00,ACK
8041,28749886760.00,Data read: 0A
8042,28749907760.00,ACK
8043,28749919680.00,Data read: 4D
8044,28749940680.00,ACK
8045,28749952600.00,Data read: 46
8046,28749973600.00,ACK
8047,28749985520.00,Data read: 52
8048,28750006520.00,ACK
8049,28750018480.00,Data read: 5F
8050,28750039440.00,ACK
8051,28750051360.00,Data read: 49
8052,28750072320.00,ACK
8053,28750084240.00,Data read: 44
8054,28750105240.00,ACK
8055,28750117160.00,Data read: 5F
8056,28750138160.00,ACK
8057,28750150080.00,Data read: 30
8058,28750171080.00,ACK
8059,28750184640.00,Data read: 30
8060,28750205640.00,ACK
8061,28750217560.00,Data read: 31
8062,28750238560.00,ACK
8063,28750250520.00,Data read: 0B
8064,28750250520.00,PEC OK: 0B
8065,28750271480.00,NACK
8066,28750285120.00,Stop
8067,28779982560.00,Start
8068,28779986400.00,Address write: 5A
8069,28780007360.00,ACK
8070,28780019640.00,Command: MFR_MODEL (9A)
8071,28780040560.00,ACK
8072,28780051400.00,Start repeat
8073,28780449680.00,Address read: 5A
8074,28780470640.00,ACK
8075,28780908160.00,Data read: 0D
8076,28780929160.00,ACK
8077,28780941080.00,Data read: 4D
8078,28780962080.00,ACK
8079,28780974000.00,Data read: 46
8080,28780995000.00,ACK
8081,28781006960.00,Data read: 52
8082,28781027960.00,ACK
8083,28781039880.00,Data read: 5F
8084,28781060880.00,ACK
8085,28781072800.00,Data read: 4D
8086,28781093840.00,ACK
8087,28781105760.00,Data read: 4F
8088,28781126760.00,ACK
8089,28781138680.00,Data read: 44
8090,28781159680.00,ACK
8091,28781171600.00,Data read: 45
8092,28781192600.00,ACK
8093,28781204520.00,Data read: 4C
8094,28781225520.00,ACK
8095,28781237440.00,Data read: 5F
8096,28781258440.00,ACK
8097,28781270360.00,Data read: 30
8098,28781291360.00,ACK
8099,28781303280.00,Data read: 30
8100,28781324320.00,ACK
8101,28781336200.00,Data read: 31
8102,28781357240.00,ACK
8103,28781375120.00,Data read: 06
8104,28781375120.00,PEC OK: 06
8105,28781396120.00,NACK
8106,28781409480.00,Stop
8107,28811990520.00,Start
8108,28811994360.00,Address write: 5A
8109,28812015280.00,ACK
8110,28812027600.00,Command: MFR_REVISION (9B)
8111,28812048520.00,ACK
8112,28812059320.00,Start repeat
8113,28812460640.00,Address read: 5A
8114,28812481600.00,ACK
8115,28812909960.00,Data read: 0B
8116,28812930960.00,ACK
8117,28812942920.00,Data read: 4D
8118,28812963920.00,ACK
8119,28812975840.00,Data read: 46
8120,28812996840.00,ACK
8121,28813008760.00,Data read: 52
8122,28813029760.00,ACK
8123,28813041680.00,Data read: 5F
8124,28813062680.00,ACK
8125,28813074640.00,Data read: 52
8126,28813095640.00,ACK
8127,28813107560.00,Data read: 45
8128,28813128560.00,ACK
8129,28813140480.00,Data read: 56
8130,28813161480.00,ACK
8131,28813173440.00,Data read: 5F
8132,28813194400.00,ACK
8133,28813206360.00,Data read: 30
8134,28813227360.00,ACK
8135,28813239280.00,Data read: 30
8136,28813260280.00,ACK
8137,28813272200.00,Data read: 31
8138,28813293200.00,ACK
8139,28813312280.00,Data read: A9
8140,28813312280.00,PEC OK: A9
8141,28813333280.00,NACK
8142,28813346680.00,Stop
8143,28842986880.00,Start
8144,28842990760.00,Address write: 5A
8145,28843011680.00,ACK
8146,28843023960.00,Command: MFR_LOCATION (9C)
8147,28843044880.00,ACK
8148,28843055720.00,Start repeat
8149,28843462960.00,Address read: 5A
8150,28843483880.00,ACK
8151,28843945800.00,Data read: 10
8152,28843966800.00,ACK
8153,28843978720.00,Data read: 4D
8154,28843999720.00,ACK
8155,28844011640.00,Data read: 46
8156,28844032640.00,ACK
8157,28844044560.00,Data read: 52
8158,28844065600.00,ACK
8159,28844077520.00,Data read: 5F
8160,28844098480.00,ACK
8161,28844110440.00,Data read: 4C
8162,28844131440.00,ACK
8163,28844143360.00,Data read: 4F
8164,28844164360.00,ACK
8165,28844176280.00,Data read: 43
8166,28844197280.00,ACK
8167,28844209200.00,Data read: 41
8168,28844230200.00,ACK
8169,28844247320.00,Data read: 54
8170,28844268320.00,ACK
8171,28844280240.00,Data read: 49
8172,28844301280.00,ACK
8173,28844313200.00,Data read: 4F
8174,28844334200.00,ACK
8175,28844346120.00,Data read: 4E
8176,28844367120.00,ACK
8177,28844379040.00,Data read: 5F
8178,28844400040.00,ACK
8179,28844411960.00,Data read: 30
8180,28844432960.00,ACK
8181,28844444880.00,Data read: 30
8182,28844465880.00,ACK
8183,28844477800.00,Data read: 31
8184,28844498800.00,ACK
8185,28844510720.00,Data read: A1
8186,28844510720.00,PEC OK: A1
8187,28844531720.00,NACK
8188,28844545320.00,Stop
8189,28875981760.00,Start
8190,28875985600.00,Address write: 5A
8191,28876006520.00,ACK
8192,28876018800.00,Command: MFR_DATE (9D)
8193,28876039760.00,ACK
8194,28876050600.00,Start repeat
8195,28876460840.00,Address read: 5A
8196,28876481800.00,ACK
8197,28876910200.00,Data read: 0A
8198,28876931200.00,ACK
8199,28876943120.00,Data read: 32
8200,28876964120.00,ACK
8201,28876976080.00,Data read: 30
8202,28876997040.00,ACK
8203,28877009000.00,Data read: 32
8204,28877030000.00,ACK
8205,28877041920.00,Data read: 36
8206,28877062920.00,ACK
8207,28877074840.00,Data read: 2D
8208,28877095840.00,ACK
8209,28877107760.00,Data read: 30
8210,28877128760.00,ACK
8211,28877140680.00,Data read: 36
8212,28877161680.00,ACK
8213,28877178800.00,Data read: 2D
8214,28877199800.00,ACK
8215,28877211720.00,Data read: 31
8216,28877232720.00,ACK
8217,28877244640.00,Data read: 34
8218,28877265640.00,ACK
8219,28877277560.00,Data read: 22
8220,28877277560.00,PEC OK: 22
8221,28877298560.00,NACK
8222,28877311960.00,Stop
8223,28906991240.00,Start
8224,28906995080.00,Address write: 5A
8225,28907016000.00,ACK
8226,28907028320.00,Command: MFR_SERIAL (9E)
8227,28907049240.00,ACK
8228,28907060040.00,Start repeat
8229,28907464360.00,Address read: 5A
8230,28907485280.00,ACK
8231,28907932440.00,Data read: 0E
8232,28907953400.00,ACK
8233,28907965320.00,Data read: 4D
8234,28907986320.00,ACK
8235,28907998280.00,Data read: 46
8236,28908019280.00,ACK
8237,28908031200.00,Data read: 52
8238,28908052200.00,ACK
8239,28908064120.00,Data read: 5F
8240,28908085120.00,ACK
8241,28908105600.00,Data read: 53
8242,28908126600.00,ACK
8243,28908138520.00,Data read: 45
8244,28908159520.00,ACK
8245,28908171440.00,Data read: 52
8246,28908192400.00,ACK
8247,28908204320.00,Data read: 49
8248,28908225320.00,ACK
8249,28908237240.00,Data read: 41
8250,28908258240.00,ACK
8251,28908270840.00,Data read: 4C
8252,28908291840.00,ACK
8253,28908303760.00,Data read: 5F
8254,28908324760.00,ACK
8255,28908336680.00,Data read: 30
8256,28908357680.00,ACK
8257,28908369600.00,Data read: 30
8258,28908390640.00,ACK
8259,28908402560.00,Data read: 31
8260,28908423560.00,ACK
8261,28908435480.00,Data read: FC
8262,28908435480.00,PEC OK: FC
8263,28908456480.00,NACK
8264,28908469880.00,Stop
8265,28939989360.00,Start
8266,28939993200.00,Address write: 5A
8267,28940014120.00,ACK
8268,28940036800.00,Command: APP_PROFILE_SUPPORT (9F)
8269,28940057760.00,ACK
8270,28940068560.00,Start repeat
8271,28940481840.00,Address read: 5A
8272,28940502760.00,ACK
8273,28940884040.00,Data read: 02
8274,28940905040.00,ACK
8275,28940916960.00,Data read: 01
8276,28940937960.00,ACK
8277,28940949880.00,Data read: 13
8278,28940970880.00,ACK
8279,28940982800.00,PEC OK: 14
8280,28940982800.00,Data read: 14
8281,28941003800.00,NACK
8282,28941036560.00,Stop
8283,28970988280.00,Start
8284,28970991880.00,Address write: 5A
8285,28971012800.00,ACK
8286,28971025120.00,Command: MFR_VIN_MIN (A0)
8287,28971046000.00,ACK
8288,28971056800.00,Start repeat
8289,28971473040.00,Address read: 5A
8290,28971493960.00,ACK
8291,28971870920.00,Data read: D0
8292,28971891880.00,ACK
8293,28971903800.00,Data read: F2
8294,28971924800.00,ACK
8295,28971936720.00,Data read: F1
8296,28971936720.00,PEC OK: F1
8297,28971957760.00,NACK
8298,28971975480.00,Stop
8299,29002982200.00,Start
8300,29002985800.00,Address write: 5A
8301,29003006720.00,ACK
8302,29003019040.00,Command: MFR_VIN_MAX (A1)
8303,29003039920.00,ACK
8304,29003050720.00,Start repeat
8305,29003470000.00,Address read: 5A
8306,29003490920.00,ACK
8307,29003870000.00,Data read: 10
8308,29003891000.00,ACK
8309,29003909240.00,Data read: FA
8310,29003930240.00,ACK
8311,29003942200.00,Data read: 32
8312,29003942200.00,PEC OK: 32
8313,29003963160.00,NACK
8314,29003976560.00,Stop
8315,29034983760.00,Start
8316,29034987400.00,Address write: 5A
8317,29035008320.00,ACK
8318,29035020640.00,Command: MFR_IIN_MAX (A2)
8319,29035041520.00,ACK
8320,29035052320.00,Start repeat
8321,29035474600.00,Address read: 5A
8322,29035495520.00,ACK
8323,29035876680.00,Data read: 00
8324,29035897680.00,ACK
8325,29035913960.00,Data read: C3
8326,29035934960.00,ACK
8327,29035946920.00,Data read: F0
8328,29035946920.00,PEC OK: F0
8329,29035967920.00,NACK
8330,29035981320.00,Stop
8331,29066987920.00,Start
8332,29066991520.00,Address write: 5A
8333,29067012480.00,ACK
8334,29067024760.00,Command: MFR_PIN_MAX (A3)
8335,29067045680.00,ACK
8336,29067056520.00,Start repeat
8337,29067481720.00,Address read: 5A
8338,29067502680.00,ACK
8339,29067885760.00,Data read: 94
8340,29067906760.00,ACK
8341,29067923040.00,Data read: FA
8342,29067944080.00,ACK
8343,29067956000.00,Data read: FC
8344,29067956000.00,PEC OK: FC
8345,29067977000.00,NACK
8346,29067990400.00,Stop
8347,29096990840.00,Start
8348,29096994440.00,Address write: 5A
8349,29097015400.00,ACK
8350,29097027680.00,Command: MFR_VOUT_MIN (A4)
8351,29097048600.00,ACK
8352,29097059400.00,Start repeat
8353,29097487600.00,Address read: 5A
8354,29097508560.00,ACK
8355,29097893480.00,Data read: 9A
8356,29097914480.00,ACK
8357,29097930760.00,Data read: 15
8358,29097951760.00,ACK
8359,29097963680.00,Data read: CB
8360,29097963680.00,PEC OK: CB
8361,29097984680.00,NACK
8362,29097998080.00,Stop
8363,29129986600.00,Start
8364,29129990200.00,Address write: 5A
8365,29130011160.00,ACK
8366,29130023440.00,Command: MFR_VOUT_MAX (A5)
8367,29130044360.00,ACK
8368,29130055200.00,Start repeat
8369,29130486400.00,Address read: 5A
8370,29130507360.00,ACK
8371,29130894280.00,Data read: 66
8372,29130915280.00,ACK
8373,29130931560.00,Data read: 1A
8374,29130952600.00,ACK
8375,29130964520.00,Data read: 18
8376,29130964520.00,PEC OK: 18
8377,29130985520.00,NACK
8378,29130998920.00,Stop
8379,29160986400.00,Start
8380,29160990000.00,Address write: 5A
8381,29161010920.00,ACK
8382,29161023240.00,Command: MFR_IOUT_MAX (A6)
8383,29161044160.00,ACK
8384,29161054960.00,Start repeat
8385,29161489160.00,Address read: 5A
8386,29161510080.00,ACK
8387,29161899040.00,Data read: 20
8388,29161920040.00,ACK
8389,29161936320.00,Data read: DB
8390,29161957320.00,ACK
8391,29161969240.00,Data read: 4E
8392,29161969240.00,PEC OK: 4E
8393,29161990240.00,NACK
8394,29162003640.00,Stop
8395,29192992240.00,Start
8396,29192995840.00,Address write: 5A
8397,29193016760.00,ACK
8398,29193029080.00,Command: MFR_POUT_MAX (A7)
8399,29193050000.00,ACK
8400,29193060840.00,Start repeat
8401,29193498000.00,Address read: 5A
8402,29193518960.00,ACK
8403,29193914200.00,Data read: 58
8404,29193935160.00,ACK
8405,29193947080.00,Data read: FA
8406,29193968080.00,ACK
8407,29193980000.00,PEC OK: B5
8408,29193980000.00,Data read: B5
8409,29194001000.00,NACK
8410,29194014360.00,Stop
8411,29223992720.00,Start
8412,29223996320.00,Address write: 5A
8413,29224017240.00,ACK
8414,29224029560.00,Command: MFR_TAMBIENT_MAX (A8)
8415,29224050440.00,ACK
8416,29224061240.00,Start repeat
8417,29224501440.00,Address read: 5A
8418,29224522400.00,ACK
8419,29224919920.00,Data read: 20
8420,29224940920.00,ACK
8421,29224952840.00,Data read: EB
8422,29224973840.00,ACK
8423,29224985760.00,Data read: 1A
8424,29224985760.00,PEC OK: 1A
8425,29225006760.00,NACK
8426,29225020160.00,Stop
8427,29255994400.00,Start
8428,29255998000.00,Address write: 5A
8429,29256018960.00,ACK
8430,29256031240.00,Command: MFR_TAMBIENT_MIN (A9)
8431,29256052160.00,ACK
8432,29256062960.00,Start repeat
8433,29256506160.00,Address read: 5A
8434,29256527080.00,ACK
8435,29256926400.00,Data read: 80
8436,29256947400.00,ACK
8437,29256959320.00,Data read: D5
8438,29256980320.00,ACK
8439,29256992240.00,Data read: AE
8440,29256992240.00,PEC OK: AE
8441,29257013240.00,NACK
8442,29257026640.00,Stop
8443,29287984200.00,Start
8444,29287988040.00,Address write: 5A
8445,29288008960.00,ACK
8446,29288021280.00,Command: MFR_EFFICIENCY_LL (AA)
8447,29288042200.00,ACK
8448,29288053000.00,Start repeat
8449,29288499200.00,Address read: 5A
8450,29288520160.00,ACK
8451,29288950160.00,Data read: 06
8452,29288971160.00,ACK
8453,29288983040.00,Data read: 14
8454,29289004080.00,ACK
8455,29289016000.00,Data read: 5A
8456,29289037000.00,ACK
8457,29289048920.00,Data read: 32
8458,29289069920.00,ACK
8459,29289081840.00,Data read: 5C
8460,29289102840.00,ACK
8461,29289114760.00,Data read: 64
8462,29289135760.00,ACK
8463,29289147680.00,Data read: 5D
8464,29289168680.00,ACK
8465,29289180600.00,Data read: 96
8466,29289180600.00,PEC OK: 96
8467,29289201640.00,NACK
8468,29289215000.00,Stop
8469,29319989720.00,Start
8470,29319993560.00,Address write: 5A
8471,29320014480.00,ACK
8472,29320026800.00,Command: MFR_EFFICIENCY_HL (AB)
8473,29320047720.00,ACK
8474,29320058520.00,Start repeat
8475,29320507720.00,Address read: 5A
8476,29320528640.00,ACK
8477,29320960680.00,Data read: 06
8478,29320981680.00,ACK
8479,29320993560.00,Data read: 14
8480,29321014600.00,ACK
8481,29321026520.00,Data read: 5C
8482,29321047520.00,ACK
8483,29321059440.00,Data read: 32
8484,29321080440.00,ACK
8485,29321092360.00,Data read: 5E
8486,29321113360.00,ACK
8487,29321125280.00,Data read: 64
8488,29321146280.00,ACK
8489,29321158200.00,Data read: 60
8490,29321179240.00,ACK
8491,29321191160.00,PEC OK: C1
8492,29321191160.00,Data read: C1
8493,29321212120.00,NACK
8494,29321232120.00,Stop
8495,29366991440.00,Start
8496,29366995040.00,Address write: 5A
8497,29367015960.00,ACK
8498,29367028280.00,Command: MFR_PIN_ACCURACY (AC)
8499,29367049200.00,ACK
8500,29367060000.00,Start repeat
8501,29367512160.00,Address read: 5A
8502,29367533080.00,ACK
8503,29367932480.00,Data read: 32
8504,29367953480.00,ACK
8505,29367965400.00,Data read: E2
8506,29367965400.00,PEC OK: E2
8507,29367986400.00,NACK
8508,29367999800.00,Stop
8509,29397991840.00,Start
8510,29397995720.00,Address write: 5A
8511,29398016640.00,ACK
8512,29398028920.00,Command: IC_DEVICE_ID (AD)
8513,29398049880.00,ACK
8514,29398072560.00,Start repeat
8515,29398527720.00,Address read: 5A
8516,29398548680.00,ACK
8517,29399002600.00,Data read: 0A
8518,29399023600.00,ACK
8519,29399035520.00,Data read: 4D
8520,29399056520.00,ACK
8521,29399073640.00,Data read: 30
8522,29399094640.00,ACK
8523,29399106560.00,Data read: 33
8524,29399127560.00,ACK
8525,29399139480.00,Data read: 31
8526,29399160520.00,ACK
8527,29399172440.00,Data read: 5F
8528,29399193440.00,ACK
8529,29399205360.00,Data read: 50
8530,29399226360.00,ACK
8531,29399238280.00,Data read: 4D
8532,29399259320.00,ACK
8533,29399271240.00,Data read: 42
8534,29399292240.00,ACK
8535,29399304160.00,Data read: 55
8536,29399325160.00,ACK
8537,29399337280.00,Data read: 53
8538,29399358280.00,ACK
8539,29399370200.00,Data read: 86
8540,29399370200.00,PEC OK: 86
8541,29399391200.00,NACK
8542,29399404640.00,Stop
8543,29430994120.00,Start
8544,29430997960.00,Address write: 5A
8545,29431018920.00,ACK
8546,29431031200.00,Command: IC_DEVICE_REV (AE)
8547,29431052160.00,ACK
8548,29431062960.00,Start repeat
8549,29431521160.00,Address read: 5A
8550,29431542080.00,ACK
8551,29431981280.00,Data read: 07
8552,29432002280.00,ACK
8553,29432020520.00,Data read: 52
8554,29432041560.00,ACK
8555,29432053480.00,Data read: 45
8556,29432074480.00,ACK
8557,29432086360.00,Data read: 56
8558,29432107400.00,ACK
8559,29432119320.00,Data read: 5F
8560,29432140320.00,ACK
8561,29432152240.00,Data read: 30
8562,29432173240.00,ACK
8563,29432185160.00,Data read: 30
8564,29432206160.00,ACK
8565,29432218080.00,Data read: 31
8566,29432239080.00,ACK
8567,29432251000.00,Data read: C5
8568,29432251000.00,PEC OK: C5
8569,29432272000.00,NACK
8570,29432285400.00,Stop
8571,29461987360.00,Start
8572,29461990960.00,Address write: 5A
8573,29462011880.00,ACK
8574,29462024200.00,Command: MFR_MAX_TEMP_1 (C0)
8575,29462045080.00,ACK
8576,29462055880.00,Start repeat
8577,29462517080.00,Address read: 5A
8578,29462538000.00,ACK
8579,29462944920.00,Data read: 30
8580,29462965920.00,ACK
8581,29462982200.00,Data read: E2
8582,29463003200.00,ACK
8583,29463015120.00,Data read: 97
8584,29463015120.00,PEC OK: 97
8585,29463036120.00,NACK
8586,29463049520.00,Stop
8587,29493987680.00,Start
8588,29493991280.00,Address write: 5A
8589,29494012240.00,ACK
8590,29494024520.00,Command: MFR_MAX_TEMP_2 (C1)
8591,29494045400.00,ACK
8592,29494056240.00,Start repeat
8593,29494520440.00,Address read: 5A
8594,29494541400.00,ACK
8595,29494950280.00,Data read: B0
8596,29494971240.00,ACK
8597,29494987560.00,Data read: E2
8598,29495008600.00,ACK
8599,29495020520.00,Data read: 37
8600,29495020520.00,PEC OK: 37
8601,29495041520.00,NACK
8602,29495054920.00,Stop
8603,29524990000.00,Start
8604,29524993640.00,Address write: 5A
8605,29525014560.00,ACK
8606,29525026880.00,Command: MFR_MAX_TEMP_3 (C2)
8607,29525047760.00,ACK
8608,29525058560.00,Start repeat
8609,29525525720.00,Address read: 5A
8610,29525546640.00,ACK
8611,29525957560.00,Data read: 20
8612,29525978520.00,ACK
8613,29525994840.00,Data read: E3
8614,29526015840.00,ACK
8615,29526027760.00,Data read: EB
8616,29526027760.00,PEC OK: EB
8617,29526048760.00,NACK
8618,29526062160.00,Stop
8619,29556989120.00,Start
8620,29556992960.00,Address write: 5A
8621,29557013920.00,ACK
8622,29557026200.00,Command: USER_DATA_00 (B0)
8623,29557047120.00,ACK
8624,29557057920.00,Start repeat
8625,29557571880.00,Address read: 5A
8626,29557592800.00,ACK
8627,29558038440.00,Data read: 01
8628,29558059440.00,ACK
8629,29558075720.00,Data read: B0
8630,29558096720.00,ACK
8631,29558108640.00,Data read: F0
8632,29558108640.00,PEC OK: F0
8633,29558129640.00,NACK
8634,29558143040.00,Stop
8635,29587990800.00,Start
8636,29587994640.00,Address write: 5A
8637,29588015560.00,ACK
8638,29588027880.00,Command: USER_DATA_15 (BF)
8639,29588048840.00,ACK
8640,29588059680.00,Start repeat
8641,29588573600.00,Address read: 5A
8642,29588594560.00,ACK
8643,29589039040.00,Data read: 01
8644,29589060000.00,ACK
8645,29589076320.00,Data read: BF
8646,29589097320.00,ACK
8647,29589109240.00,Data read: 0F
8648,29589109240.00,PEC OK: 0F
8649,29589130240.00,NACK
8650,29589143680.00,Stop
8651,29619987880.00,Start
8652,29619991720.00,Address write: 5A
8653,29620012680.00,ACK
8654,29620024960.00,Command: MFR_SPECIFIC_C4 (C4)
8655,29620045880.00,ACK
8656,29620056880.00,Start repeat
8657,29620574840.00,Address read: 5A
8658,29620595800.00,ACK
8659,29621053560.00,Data read: 01
8660,29621074560.00,ACK
8661,29621086480.00,Data read: C4
8662,29621107480.00,ACK
8663,29621119400.00,PEC OK: D1
8664,29621119400.00,Data read: D1
8665,29621140400.00,NACK
8666,29621153800.00,Stop
8667,29652992720.00,Start
8668,29652996320.00,Address write: 5A
8669,29653017280.00,ACK
8670,29653029560.00,Command: MFR_SPECIFIC_D0 (D0)
8671,29653050440.00,ACK
8672,29653061280.00,Start repeat
8673,29653531400.00,Address read: 5A
8674,29653552320.00,ACK
8675,29653964040.00,Data read: 00
8676,29653985040.00,ACK
8677,29653996960.00,PEC OK: E1
8678,29653996960.00,Data read: E1
8679,29654017960.00,NACK
8680,29654031320.00,Stop
8681,29698997880.00,Start
8682,29699001480.00,Address write: 5A
8683,29699022440.00,ACK
8684,29699034720.00,Command: MFR_SPECIFIC_D4 (D4)
8685,29699055640.00,ACK
8686,29699066440.00,Start repeat
8687,29699539600.00,Address read: 5A
8688,29699560520.00,ACK
8689,29699979760.00,Data read: 01
8690,29700000760.00,ACK
8691,29700012680.00,Data read: 00
8692,29700033680.00,ACK
8693,29700045560.00,Data read: E4
8694,29700045560.00,PEC OK: E4
8695,29700066560.00,NACK
8696,29700079960.00,Stop
8697,29731998200.00,Start
8698,29732001800.00,Address write: 5A
8699,29732022760.00,ACK
8700,29732035040.00,Command: MFR_SPECIFIC_D5 (D5)
8701,29732055960.00,ACK
8702,29732066800.00,Start repeat
8703,29732542880.00,Address read: 5A
8704,29732563800.00,ACK
8705,29732979480.00,Data read: 01
8706,29733000480.00,ACK
8707,29733012400.00,Data read: 26
8708,29733012400.00,PEC OK: 26
8709,29733033400.00,NACK
8710,29733046800.00,Stop
8711,29763988680.00,Start
8712,29763992280.00,Address write: 5A
8713,29764013240.00,ACK
8714,29764025520.00,Command: MFR_SPECIFIC_D6 (D6)
8715,29764046480.00,ACK
8716,29764057280.00,Start repeat
8717,29764554320.00,Address read: 5A
8718,29764575240.00,ACK
8719,29765004880.00,Data read: 00
8720,29765025880.00,ACK
8721,29765037800.00,Data read: 9C
8722,29765037800.00,PEC OK: 9C
8723,29765058800.00,NACK
8724,29765072200.00,Stop
8725,29794994760.00,Start
8726,29794998360.00,Address write: 5A
8727,29795019280.00,ACK
8728,29795031600.00,Command: MFR_SPECIFIC_D8 (D8)
8729,29795052520.00,ACK
8730,29795063320.00,Start repeat
8731,29795566440.00,Address read: 5A
8732,29795587360.00,ACK
8733,29796026600.00,Data read: 00
8734,29796047600.00,ACK
8735,29796059520.00,Data read: 00
8736,29796080520.00,ACK
8737,29796092440.00,PEC OK: 19
8738,29796092440.00,Data read: 19
8739,29796113440.00,NACK
8740,29796126800.00,Stop
8741,29827995840.00,Start
8742,29827999680.00,Address write: 5A
8743,29828020600.00,ACK
8744,29828032880.00,Command: MFR_SPECIFIC_D9 (D9)
8745,29828053840.00,ACK
8746,29828064640.00,Start repeat
8747,29828543800.00,Address read: 5A
8748,29828564720.00,ACK
8749,29829022640.00,Data read: 07
8750,29829043640.00,ACK
8751,29829055560.00,Data read: 46
8752,29829076560.00,ACK
8753,29829088480.00,Data read: 57
8754,29829109480.00,ACK
8755,29829121400.00,Data read: 5F
8756,29829142400.00,ACK
8757,29829154320.00,Data read: 30
8758,29829175320.00,ACK
8759,29829192480.00,Data read: 30
8760,29829213440.00,ACK
8761,29829225360.00,Data read: 31
8762,29829246360.00,ACK
8763,29829258280.00,Data read: 41
8764,29829279280.00,ACK
8765,29829291200.00,Data read: F9
8766,29829291200.00,PEC OK: F9
8767,29829312240.00,NACK
8768,29829325840.00,Stop
8769,29857998120.00,Start
8770,29858001760.00,Address write: 5A
8771,29858022680.00,ACK
8772,29858035000.00,Command: MFR_SPECIFIC_DB (DB)
8773,29858055960.00,ACK
8774,29858066760.00,Start repeat
8775,29858548840.00,Address read: 5A
8776,29858569760.00,ACK
8777,29858989440.00,Data read: 00
8778,29859010440.00,ACK
8779,29859022360.00,Data read: 0D
8780,29859022360.00,PEC OK: 0D
8781,29859043360.00,NACK
8782,29859056760.00,Stop
8783,29888994840.00,Start
8784,29888998680.00,Address write: 5A
8785,29889019640.00,ACK
8786,29889031920.00,Command: MFR_SPECIFIC_DC (DC)
8787,29889052840.00,ACK
8788,29889068120.00,Start repeat
8789,29889574240.00,Address read: 5A
8790,29889595160.00,ACK
8791,29890206960.00,Data read: 20
8792,29890227960.00,ACK
8793,29890245080.00,Data read: 02
8794,29890266120.00,ACK
8795,29890278040.00,Data read: 82
8796,29890299040.00,ACK
8797,29890310960.00,Data read: 82
8798,29890331960.00,ACK
8799,29890343880.00,Data read: 00
8800,29890364880.00,ACK
8801,29890376800.00,Data read: 00
8802,29890397800.00,ACK
8803,29890409720.00,Data read: 00
8804,29890430720.00,ACK
8805,29890442640.00,Data read: 00
8806,29890463640.00,ACK
8807,29890475560.00,Data read: 00
8808,29890496560.00,ACK
8809,29890508520.00,Data read: 20
8810,29890529520.00,ACK
8811,29890541400.00,Data read: 00
8812,29890562440.00,ACK
8813,29890574360.00,Data read: 98
8814,29890595360.00,ACK
8815,29890607280.00,Data read: F3
8816,29890628280.00,ACK
8817,29890640200.00,Data read: 00
8818,29890661200.00,ACK
8819,29890673120.00,Data read: 18
8820,29890694120.00,ACK
8821,29890706040.00,Data read: 50
8822,29890727040.00,ACK
8823,29890738960.00,Data read: DA
8824,29890759960.00,ACK
8825,29890771880.00,Data read: 30
8826,29890792880.00,ACK
8827,29890804800.00,Data read: E2
8828,29890825800.00,ACK
8829,29890837760.00,Data read: B0
8830,29890858720.00,ACK
8831,29890870640.00,Data read: E2
8832,29890891640.00,ACK
8833,29890903560.00,Data read: 20
8834,29890924600.00,ACK
8835,29890936520.00,Data read: E3
8836,29890957520.00,ACK
8837,29890969440.00,Data read: EE
8838,29890990440.00,ACK
8839,29891002360.00,Data read: 22
8840,29891023360.00,ACK
8841,29891057440.00,Data read: E2
8842,29891078480.00,ACK
8843,29891090400.00,Data read: 22
8844,29891111400.00,ACK
8845,29891123320.00,Data read: 28
8846,29891144320.00,ACK
8847,29891156280.00,Data read: FA
8848,29891177240.00,ACK
8849,29891189200.00,Data read: 78
8850,29891210160.00,ACK
8851,29891222080.00,Data read: F3
8852,29891243120.00,ACK
8853,29891255040.00,Data read: C4
8854,29891276040.00,ACK
8855,29891287960.00,Data read: 00
8856,29891308960.00,ACK
8857,29891320880.00,Data read: BA
8858,29891320880.00,PEC OK: BA
8859,29891341880.00,NACK
8860,29891355280.00,Stop
8861,29921996720.00,Start
8862,29922000360.00,Address write: 5A
8863,29922021280.00,ACK
8864,29922033560.00,Command: MFR_SPECIFIC_F0 (F0)
8865,29922054480.00,ACK
8866,29922065320.00,Start repeat
8867,29922556440.00,Address read: 5A
8868,29922577360.00,ACK
8869,29923004280.00,Data read: 20
8870,29923025280.00,ACK
8871,29923041560.00,Data read: EB
8872,29923062560.00,ACK
8873,29923074480.00,PEC OK: 56
8874,29923074480.00,Data read: 56
8875,29923095520.00,NACK
8876,29923108880.00,Stop
8877,29952990760.00,Start
8878,29952994600.00,Address write: 5A
8879,29953015520.00,ACK
8880,29953027840.00,Command: MFR_SPECIFIC_F1 (F1)
8881,29953048760.00,ACK
8882,29953059600.00,Start repeat
8883,29953553720.00,Address read: 5A
8884,29953574640.00,ACK
8885,29954077360.00,Data read: 0E
8886,29954098360.00,ACK
8887,29954114840.00,Data read: 01
8888,29954135880.00,ACK
8889,29954147800.00,Data read: 00
8890,29954168800.00,ACK
8891,29954180720.00,Data read: 00
8892,29954201720.00,ACK
8893,29954213680.00,Data read: 00
8894,29954234680.00,ACK
8895,29954246600.00,Data read: 00
8896,29954267600.00,ACK
8897,29954279520.00,Data read: 00
8898,29954300520.00,ACK
8899,29954312440.00,Data read: 00
8900,29954333440.00,ACK
8901,29954345400.00,Data read: 00
8902,29954366400.00,ACK
8903,29954378320.00,Data read: 00
8904,29954399320.00,ACK
8905,29954411240.00,Data read: 00
8906,29954432240.00,ACK
8907,29954444160.00,Data read: 00
8908,29954465160.00,ACK
8909,29954477080.00,Data read: 00
8910,29954498120.00,ACK
8911,29954510040.00,Data read: 00
8912,29954531040.00,ACK
8913,29954543000.00,Data read: 00
8914,29954563960.00,ACK
8915,29954575880.00,Data read: 0F
8916,29954575880.00,PEC OK: 0F
8917,29954596880.00,NACK
8918,29954610280.00,Stop
8919,29984996800.00,Start
8920,29985000640.00,Address write: 5A
8921,29985021560.00,ACK
8922,29985033880.00,Command: MFR_SPECIFIC_FD (FD)
8923,29985054840.00,ACK
8924,29985065640.00,Start repeat
8925,29985583640.00,Address read: 5A
8926,29985604560.00,ACK
8927,29986052720.00,Data read: 01
8928,29986073720.00,ACK
8929,29986090000.00,Data read: FD
8930,29986111000.00,ACK
8931,29986122920.00,Data read: 71
8932,29986122920.00,PEC OK: 71
8933,29986143920.00,NACK
8934,29986157320.00,Stop
8935,30031992360.00,Start
8936,30031996000.00,Address write: 5A
8937,30032016920.00,ACK
8938,30032029200.00,Command: PAGE (00)
8939,30032050080.00,ACK
8940,30032060920.00,Start repeat
8941,30032087920.00,Address read: 5A
8942,30032108880.00,ACK
8943,30032220680.00,Data read: 00
8944,30032241680.00,ACK
8945,30032253600.00,Data read: CE
8946,30032253600.00,PEC OK: CE
8947,30032274560.00,NACK
8948,30032288000.00,Stop
8949,30063998360.00,Start
8950,30064001960.00,Address write: 5A
8951,30064022920.00,ACK
8952,30064035200.00,Command: OPERATION (01)
8953,30064056080.00,ACK
8954,30064066920.00,Start repeat
8955,30064096920.00,Address read: 5A
8956,30064117880.00,ACK
8957,30064231760.00,Data read: 80
8958,30064252760.00,ACK
8959,30064264680.00,Data read: 2C
8960,30064264680.00,PEC OK: 2C
8961,30064285680.00,NACK
8962,30064299080.00,Stop
8963,30096004080.00,Start
8964,30096007680.00,Address write: 5A
8965,30096028640.00,ACK
8966,30096040920.00,Command: ON_OFF_CONFIG (02)
8967,30096061800.00,ACK
8968,30096072640.00,Start repeat
8969,30096105640.00,Address read: 5A
8970,30096126600.00,ACK
8971,30096242640.00,Data read: 1A
8972,30096263640.00,ACK
8973,30096275560.00,Data read: 5E
8974,30096275560.00,PEC OK: 5E
8975,30096296560.00,NACK
8976,30096309960.00,Stop
8977,30127005000.00,Start
8978,30127008640.00,Address write: 5A
8979,30127029560.00,ACK
8980,30127041840.00,Command: PHASE (04)
8981,30127062720.00,ACK
8982,30127073560.00,Start repeat
8983,30127112600.00,Address read: 5A
8984,30127133560.00,ACK
8985,30127253600.00,Data read: 00
8986,30127274640.00,ACK
8987,30127286520.00,Data read: 65
8988,30127286520.00,PEC OK: 65
8989,30127307560.00,NACK
8990,30127320920.00,Stop
8991,30160005000.00,Start
8992,30160008640.00,Address write: 5A
8993,30160029560.00,ACK
8994,30160041880.00,Command: PAGE_PLUS_READ (06)
8995,30160062760.00,ACK
8996,30160072240.00,Data write: 02
8997,30160093120.00,ACK
8998,30160102560.00,Data write: 00
8999,30160123440.00,ACK
9000,30160132920.00,Data write: 98
9001,30160153800.00,ACK
9002,30160164640.00,Start repeat
9003,30160286200.00,Address read: 5A
9004,30160307120.00,ACK
9005,30160641880.00,Data read: 01
9006,30160662880.00,ACK
9007,30160681160.00,Data read: 33
9008,30160702160.00,ACK
9009,30160714080.00,Data read: 74
9010,30160714080.00,PEC OK: 74
9011,30160735080.00,NACK
9012,30160748480.00,Stop
9013,30191009400.00,Start
9014,30191013000.00,Address write: 5A
9015,30191033960.00,ACK
9016,30191046240.00,Command: ZONE_CONFIG (07)
9017,30191067160.00,ACK
9018,30191078000.00,Start repeat
9019,30191126040.00,Address read: 5A
9020,30191147000.00,ACK
9021,30191278400.00,Data read: 00
9022,30191299400.00,ACK
9023,30191311320.00,Data read: 00
9024,30191332320.00,ACK
9025,30191344240.00,Data read: 06
9026,30191344240.00,PEC OK: 06
9027,30191365200.00,NACK
9028,30191378640.00,Stop
9029,30222005280.00,Start
9030,30222008920.00,Address write: 5A
9031,30222029840.00,ACK
9032,30222042160.00,Command: ZONE_ACTIVE (08)
9033,30222063040.00,ACK
9034,30222073840.00,Start repeat
9035,30222124880.00,Address read: 5A
9036,30222145840.00,ACK
9037,30222279280.00,Data read: 00
9038,30222300280.00,ACK
9039,30222312200.00,Data read: 00
9040,30222333200.00,ACK
9041,30222365240.00,Data read: D4
9042,30222365240.00,PEC OK: D4
9043,30222386200.00,NACK
9044,30222399640.00,Stop
9045,30254004000.00,Start
9046,30254007600.00,Address write: 5A
9047,30254028520.00,ACK
9048,30254040840.00,Command: WRITE_PROTECT (10)
9049,30254061720.00,ACK
9050,30254072520.00,Start repeat
9051,30254126520.00,Address read: 5A
9052,30254147440.00,ACK
9053,30254277240.00,Data read: 00
9054,30254298280.00,ACK
9055,30254314560.00,Data read: 6C
9056,30254314560.00,PEC OK: 6C
9057,30254335560.00,NACK
9058,30254348920.00,Stop
9059,30285010960.00,Start
9060,30285014560.00,Address write: 5A
9061,30285035520.00,ACK
9062,30285047800.00,Command: CAPABILITY (19)
9063,30285068720.00,ACK
9064,30285079560.00,Start repeat
9065,30285160480.00,Address read: 5A
9066,30285181400.00,ACK
9067,30285329240.00,Data read: 80
9068,30285350240.00,ACK
9069,30285366520.00,Data read: DF
9070,30285366520.00,PEC OK: DF
9071,30285387520.00,NACK
9072,30285400920.00,Stop
9073,30316993920.00,Start
9074,30316997560.00,Address write: 5A
9075,30317018480.00,ACK
9076,30317030760.00,Command: QUERY (1A)
9077,30317051720.00,ACK
9078,30317061160.00,Data write: 01
9079,30317082040.00,ACK
9080,30317091520.00,Data write: 98
9081,30317112440.00,ACK
9082,30317123280.00,Start repeat
9083,30317375080.00,Address read: 5A
9084,30317396000.00,ACK
9085,30318668560.00,Data read: 01
9086,30318689560.00,ACK
9087,30318706680.00,Data read: B0
9088,30318727680.00,ACK
9089,30318739640.00,Data read: AC
9090,30318739640.00,PEC OK: AC
9091,30318760640.00,NACK
9092,30318774040.00,Stop
9093,30348997880.00,Start
9094,30349001520.00,Address write: 5A
9095,30349022440.00,ACK
9096,30349034720.00,Command: SMBALERT_MASK (1B)
9097,30349055640.00,ACK
9098,30349065120.00,Data write: 01
9099,30349086000.00,ACK
9100,30349100280.00,Data write: 00
9101,30349121120.00,ACK
9102,30349131920.00,Start repeat
9103,30349368720.00,Address read: 5A
9104,30349389640.00,ACK
9105,30349668240.00,Data read: 02
9106,30349689240.00,ACK
9107,30349701160.00,Data read: 00
9108,30349722160.00,ACK
9109,30349734080.00,Data read: 00
9110,30349755080.00,ACK
9111,30349767000.00,PEC OK: DC
9112,30349767000.00,Data read: DC
9113,30349788000.00,NACK
9114,30349801400.00,Stop
9115,30379992960.00,Start
9116,30379996560.00,Address write: 5A
9117,30380017480.00,ACK
9118,30380041520.00,Command: VOUT_MODE (20)
9119,30380062400.00,ACK
9120,30380073200.00,Start repeat
9121,30380163320.00,Address read: 5A
9122,30380184240.00,ACK
9123,30380338040.00,Data read: 17
9124,30380359040.00,ACK
9125,30380370960.00,Data read: E8
9126,30380370960.00,PEC OK: E8
9127,30380391960.00,NACK
9128,30380405320.00,Stop
9129,30413003920.00,Start
9130,30413007520.00,Address write: 5A
9131,30413028480.00,ACK
9132,30413040760.00,Command: VOUT_COMMAND (21)
9133,30413061640.00,ACK
9134,30413074280.00,Start repeat
9135,30413167240.00,Address read: 5A
9136,30413188160.00,ACK
9137,30413349600.00,Data read: 00
9138,30413370600.00,ACK
9139,30413382520.00,Data read: 18
9140,30413403520.00,ACK
9141,30413415440.00,Data read: F4
9142,30413415440.00,PEC OK: F4
9143,30413436440.00,NACK
9144,30413449840.00,Stop
9145,30443997760.00,Start
9146,30444001400.00,Address write: 5A
9147,30444022320.00,ACK
9148,30444034600.00,Command: VOUT_TRIM (22)
9149,30444055520.00,ACK
9150,30444066320.00,Start repeat
9151,30444162240.00,Address read: 5A
9152,30444183200.00,ACK
9153,30444346560.00,Data read: 00
9154,30444367600.00,ACK
9155,30444379520.00,Data read: 00
9156,30444400520.00,ACK
9157,30444412400.00,Data read: 86
9158,30444412400.00,PEC OK: 86
9159,30444433440.00,NACK
9160,30444446840.00,Stop
9161,30475002840.00,Start
9162,30475006480.00,Address write: 5A
9163,30475027400.00,ACK
9164,30475039680.00,Command: VOUT_CAL_OFFSET (23)
9165,30475060600.00,ACK
9166,30475071440.00,Start repeat
9167,30475170360.00,Address read: 5A
9168,30475191320.00,ACK
9169,30475356720.00,Data read: 00
9170,30475377720.00,ACK
9171,30475389640.00,Data read: 00
9172,30475410640.00,ACK
9173,30475422560.00,Data read: 90
9174,30475422560.00,PEC OK: 90
9175,30475443560.00,NACK
9176,30475456960.00,Stop
9177,30506997720.00,Start
9178,30507001320.00,Address write: 5A
9179,30507022280.00,ACK
9180,30507034560.00,Command: VOUT_MAX (24)
9181,30507055440.00,ACK
9182,30507066280.00,Start repeat
9183,30507168200.00,Address read: 5A
9184,30507189160.00,ACK
9185,30507356520.00,Data read: 66
9186,30507377520.00,ACK
9187,30507389440.00,Data read: 1A
9188,30507410440.00,ACK
9189,30507422400.00,Data read: 3F
9190,30507422400.00,PEC OK: 3F
9191,30507443360.00,NACK
9192,30507456760.00,Stop
9193,30538000000.00,Start
9194,30538003600.00,Address write: 5A
9195,30538024520.00,ACK
9196,30538036840.00,Command: VOUT_MARGIN_HIGH (25)
9197,30538057760.00,ACK
9198,30538068560.00,Start repeat
9199,30538173520.00,Address read: 5A
9200,30538194440.00,ACK
9201,30538363840.00,Data read: 33
9202,30538384840.00,ACK
9203,30538396800.00,Data read: 19
9204,30538417760.00,ACK
9205,30538429680.00,Data read: 6D
9206,30538429680.00,PEC OK: 6D
9207,30538450680.00,NACK
9208,30538464120.00,Stop
9209,30570003120.00,Start
9210,30570006720.00,Address write: 5A
9211,30570027640.00,ACK
9212,30570039960.00,Command: VOUT_MARGIN_LOW (26)
9213,30570060880.00,ACK
9214,30570071680.00,Start repeat
9215,30570179600.00,Address read: 5A
9216,30570200560.00,ACK
9217,30570371920.00,Data read: CD
9218,30570392920.00,ACK
9219,30570404840.00,Data read: 16
9220,30570425840.00,ACK
9221,30570437800.00,Data read: B8
9222,30570437800.00,PEC OK: B8
9223,30570458800.00,NACK
9224,30570472160.00,Stop
9225,30600004920.00,Start
9226,30600008560.00,Address write: 5A
9227,30600029440.00,ACK
9228,30600041760.00,Command: VOUT_TRANSITION_RATE (27)
9229,30600062680.00,ACK
9230,30600073520.00,Start repeat
9231,30600184440.00,Address read: 5A
9232,30600205360.00,ACK
9233,30600379120.00,Data read: 00
9234,30600400160.00,ACK
9235,30600412080.00,Data read: 00
9236,30600433080.00,ACK
9237,30600444960.00,PEC OK: C8
9238,30600444960.00,Data read: C8
9239,30600466000.00,NACK
9240,30600479360.00,Stop
9241,30631995280.00,Start
9242,30631998920.00,Address write: 5A
9243,30632019840.00,ACK
9244,30632032160.00,Command: VOUT_DROOP (28)
9245,30632053040.00,ACK
9246,30632063880.00,Start repeat
9247,30632177760.00,Address read: 5A
9248,30632198720.00,ACK
9249,30632374280.00,Data read: 00
9250,30632395280.00,ACK
9251,30632407200.00,Data read: 00
9252,30632428200.00,ACK
9253,30632440120.00,Data read: 1A
9254,30632440120.00,PEC OK: 1A
9255,30632461120.00,NACK
9256,30632474520.00,Stop
9257,30663998320.00,Start
9258,30664001920.00,Address write: 5A
9259,30664022880.00,ACK
9260,30664035160.00,Command: VOUT_SCALE_LOOP (29)
9261,30664056080.00,ACK
9262,30664066880.00,Start repeat
9263,30664183800.00,Address read: 5A
9264,30664204720.00,ACK
9265,30664382120.00,Data read: 00
9266,30664403120.00,ACK
9267,30664415040.00,Data read: 00
9268,30664436080.00,ACK
9269,30664452360.00,Data read: 0C
9270,30664452360.00,PEC OK: 0C
9271,30664473360.00,NACK
9272,30664486760.00,Stop
9273,30695996200.00,Start
9274,30695999840.00,Address write: 5A
9275,30696020760.00,ACK
9276,30696033080.00,Command: VOUT_SCALE_MONITOR (2A)
9277,30696054000.00,ACK
9278,30696064800.00,Start repeat
9279,30696184680.00,Address read: 5A
9280,30696205640.00,ACK
9281,30696385000.00,Data read: 00
9282,30696406000.00,ACK
9283,30696422280.00,Data read: 00
9284,30696443280.00,ACK
9285,30696455200.00,Data read: 36
9286,30696455200.00,PEC OK: 36
9287,30696476200.00,NACK
9288,30696489600.00,Stop
9289,30727996360.00,Start
9290,30727999960.00,Address write: 5A
9291,30728020920.00,ACK
9292,30728033200.00,Command: VOUT_MIN (2B)
9293,30728054160.00,ACK
9294,30728064960.00,Start repeat
9295,30728187840.00,Address read: 5A
9296,30728208800.00,ACK
9297,30728390160.00,Data read: 9A
9298,30728411160.00,ACK
9299,30728427480.00,Data read: 15
9300,30728448480.00,ACK
9301,30728460400.00,Data read: 28
9302,30728460400.00,PEC OK: 28
9303,30728481400.00,NACK
9304,30728494800.00,Stop
9305,30760006320.00,Start
9306,30760009960.00,Address write: 5A
9307,30760030880.00,ACK
9308,30760043160.00,Command: COEFFICIENTS (30)
9309,30760064080.00,ACK
9310,30760073520.00,Data write: 01
9311,30760094400.00,ACK
9312,30760103880.00,Data write: 8B
9313,30760124800.00,ACK
9314,30760135600.00,Start repeat
9315,30760527080.00,Address read: 5A
9316,30760548000.00,ACK
9317,30760927120.00,Data read: 05
9318,30760948120.00,ACK
9319,30760960040.00,Data read: 01
9320,30760981040.00,ACK
9321,30760993000.00,Data read: 00
9322,30761014000.00,ACK
9323,30761025920.00,Data read: 00
9324,30761046920.00,ACK
9325,30761058840.00,Data read: 00
9326,30761079840.00,ACK
9327,30761091760.00,Data read: 03
9328,30761112760.00,ACK
9329,30761124680.00,Data read: A1
9330,30761124680.00,PEC OK: A1
9331,30761145680.00,NACK
9332,30761159040.00,Stop
9333,30791003200.00,Start
9334,30791006800.00,Address write: 5A
9335,30791027720.00,ACK
9336,30791040040.00,Command: POUT_MAX (31)
9337,30791060960.00,ACK
9338,30791071800.00,Start repeat
9339,30791200680.00,Address read: 5A
9340,30791221600.00,ACK
9341,30791411360.00,Data read: 58
9342,30791432320.00,ACK
9343,30791444240.00,Data read: FA
9344,30791465280.00,ACK
9345,30791477200.00,Data read: 97
9346,30791477200.00,PEC OK: 97
9347,30791498200.00,NACK
9348,30791511800.00,Stop
9349,30823000680.00,Start
9350,30823004320.00,Address write: 5A
9351,30823025240.00,ACK
9352,30823037520.00,Command: MAX_DUTY (32)
9353,30823058440.00,ACK
9354,30823069240.00,Start repeat
9355,30823201120.00,Address read: 5A
9356,30823222080.00,ACK
9357,30823413840.00,Data read: 20
9358,30823434840.00,ACK
9359,30823446760.00,Data read: EB
9360,30823467760.00,ACK
9361,30823479680.00,Data read: D0
9362,30823479680.00,PEC OK: D0
9363,30823500680.00,NACK
9364,30823514080.00,Stop
9365,30855005840.00,Start
9366,30855009440.00,Address write: 5A
9367,30855030400.00,ACK
9368,30855047160.00,Command: FREQUENCY_SWITCH (33)
9369,30855068120.00,ACK
9370,30855078920.00,Start repeat
9371,30855213800.00,Address read: 5A
9372,30855234720.00,ACK
9373,30855424040.00,Data read: 0D
9374,30855445040.00,ACK
9375,30855456960.00,Data read: 3B
9376,30855477960.00,ACK
9377,30855489920.00,Data read: BF
9378,30855489920.00,PEC OK: BF
9379,30855510880.00,NACK
9380,30855524320.00,Stop
9381,30886001920.00,Start
9382,30886005560.00,Address write: 5A
9383,30886026480.00,ACK
9384,30886038760.00,Command: POWER_MODE (34)
9385,30886059720.00,ACK
9386,30886070520.00,Start repeat
9387,30886208320.00,Address read: 5A
9388,30886229280.00,ACK
9389,30886415040.00,Data read: 00
9390,30886436040.00,ACK
9391,30886447920.00,Data read: 84
9392,30886447920.00,PEC OK: 84
9393,30886468960.00,NACK
9394,30886482360.00,Stop
9395,30920003600.00,Start
9396,30920007240.00,Address write: 5A
9397,30920028160.00,ACK
9398,30920040440.00,Command: VIN_ON (35)
9399,30920061400.00,ACK
9400,30920072200.00,Start repeat
9401,30920213040.00,Address read: 5A
9402,30920234000.00,ACK
9403,30920427360.00,Data read: D0
9404,30920448360.00,ACK
9405,30920460320.00,Data read: F2
9406,30920481280.00,ACK
9407,30920493200.00,Data read: E9
9408,30920493200.00,PEC OK: E9
9409,30920514200.00,NACK
9410,30920527600.00,Stop
9411,30950003760.00,Start
9412,30950007360.00,Address write: 5A
9413,30950028280.00,ACK
9414,30950040600.00,Command: VIN_OFF (36)
9415,30950061560.00,ACK
9416,30950072360.00,Start repeat
9417,30950216240.00,Address read: 5A
9418,30950237160.00,ACK
9419,30950432440.00,Data read: A8
9420,30950453440.00,ACK
9421,30950465360.00,Data read: F2
9422,30950486360.00,ACK
9423,30950498320.00,Data read: D9
9424,30950498320.00,PEC OK: D9
9425,30950519280.00,NACK
9426,30950532680.00,Stop
9427,30984007920.00,Start
9428,30984011560.00,Address write: 5A
9429,30984032480.00,ACK
9430,30984044800.00,Command: INTERLEAVE (37)
9431,30984065720.00,ACK
9432,30984076560.00,Start repeat
9433,30984223400.00,Address read: 5A
9434,30984244320.00,ACK
9435,30984441680.00,Data read: 00
9436,30984462680.00,ACK
9437,30984474600.00,Data read: 00
9438,30984495600.00,ACK
9439,30984507520.00,Data read: AF
9440,30984507520.00,PEC OK: AF
9441,30984528520.00,NACK
9442,30984541920.00,Stop
9443,31029004480.00,Start
9444,31029008080.00,Address write: 5A
9445,31029029040.00,ACK
9446,31029041320.00,Command: IOUT_CAL_GAIN (38)
9447,31029062240.00,ACK
9448,31029073080.00,Start repeat
9449,31029222880.00,Address read: 5A
9450,31029243840.00,ACK
9451,31029443120.00,Data read: 00
9452,31029464160.00,ACK
9453,31029476080.00,Data read: 00
9454,31029497080.00,ACK
9455,31029508960.00,Data read: 7D
9456,31029508960.00,PEC OK: 7D
9457,31029529960.00,NACK
9458,31029543400.00,Stop
9459,31061008600.00,Start
9460,31061012200.00,Address write: 5A
9461,31061033160.00,ACK
9462,31061045440.00,Command: IOUT_CAL_OFFSET (39)
9463,31061066400.00,ACK
9464,31061077400.00,Start repeat
9465,31061230240.00,Address read: 5A
9466,31061251160.00,ACK
9467,31061452520.00,Data read: 00
9468,31061473480.00,ACK
9469,31061485400.00,Data read: 00
9470,31061506400.00,ACK
9471,31061518360.00,Data read: 6B
9472,31061518360.00,PEC OK: 6B
9473,31061539360.00,NACK
9474,31061552760.00,Stop
9475,31093007840.00,Start
9476,31093011440.00,Address write: 5A
9477,31093032400.00,ACK
9478,31093044680.00,Command: FAN_CONFIG_1_2 (3A)
9479,31093065640.00,ACK
9480,31093076440.00,Start repeat
9481,31093232200.00,Address read: 5A
9482,31093253160.00,ACK
9483,31093450880.00,Data read: 00
9484,31093471880.00,ACK
9485,31093483800.00,Data read: A8
9486,31093483800.00,PEC OK: A8
9487,31093504840.00,NACK
9488,31093518200.00,Stop
9489,31124001720.00,Start
9490,31124005360.00,Address write: 5A
9491,31124026320.00,ACK
9492,31124038600.00,Command: FAN_COMMAND_1 (3B)
9493,31124059560.00,ACK
9494,31124070400.00,Start repeat
9495,31124229200.00,Address read: 5A
9496,31124250120.00,ACK
9497,31124455600.00,Data read: EE
9498,31124476600.00,ACK
9499,31124492880.00,Data read: 22
9500,31124513880.00,ACK
9501,31124525840.00,Data read: 3C
9502,31124525840.00,PEC OK: 3C
9503,31124546800.00,NACK
9504,31124560240.00,Stop
9505,31155005560.00,Start
9506,31155009200.00,Address write: 5A
9507,31155030120.00,ACK
9508,31155042440.00,Command: FAN_COMMAND_2 (3C)
9509,31155063360.00,ACK
9510,31155074200.00,Start repeat
9511,31155236000.00,Address read: 5A
9512,31155256960.00,ACK
9513,31155464440.00,Data read: E2
9514,31155485440.00,ACK
9515,31155501760.00,Data read: 22
9516,31155522760.00,ACK
9517,31155534640.00,PEC OK: A2
9518,31155534640.00,Data read: A2
9519,31155555680.00,NACK
9520,31155569040.00,Stop
9521,31186000680.00,Start
9522,31186004280.00,Address write: 5A
9523,31186025240.00,ACK
9524,31186037520.00,Command: FAN_CONFIG_3_4 (3D)
9525,31186058480.00,ACK
9526,31186069320.00,Start repeat
9527,31186234040.00,Address read: 5A
9528,31186254960.00,ACK
9529,31186458600.00,Data read: 00
9530,31186479600.00,ACK
9531,31186495880.00,Data read: BE
9532,31186495880.00,PEC OK: BE
9533,31186516880.00,NACK
9534,31186530280.00,Stop
9535,31219005840.00,Start
9536,31219009480.00,Address write: 5A
9537,31219030400.00,ACK
9538,31219042720.00,Command: FAN_COMMAND_3 (3E)
9539,31219063640.00,ACK
9540,31219074480.00,Start repeat
9541,31219242240.00,Address read: 5A
9542,31219263200.00,ACK
9543,31219489320.00,Data read: 00
9544,31219510320.00,ACK
9545,31219522240.00,Data read: 00
9546,31219543240.00,ACK
9547,31219555160.00,Data read: 09
9548,31219555160.00,PEC OK: 09
9549,31219576160.00,NACK
9550,31219589560.00,Stop
9551,31250009320.00,Start
9552,31250012960.00,Address write: 5A
9553,31250033880.00,ACK
9554,31250046160.00,Command: FAN_COMMAND_4 (3F)
9555,31250067160.00,ACK
9556,31250078000.00,Start repeat
9557,31250248760.00,Address read: 5A
9558,31250269680.00,ACK
9559,31250487400.00,Data read: 00
9560,31250508400.00,ACK
9561,31250520320.00,Data read: 00
9562,31250541320.00,ACK
9563,31250553240.00,Data read: 1F
9564,31250553240.00,PEC OK: 1F
9565,31250574240.00,NACK
9566,31250587600.00,Stop
9567,31282999640.00,Start
9568,31283003280.00,Address write: 5A
9569,31283024200.00,ACK
9570,31283036520.00,Command: VOUT_OV_FAULT_LIMIT (40)
9571,31283057400.00,ACK
9572,31283068200.00,Start repeat
9573,31283242000.00,Address read: 5A
9574,31283262960.00,ACK
9575,31283482760.00,Data read: 66
9576,31283503800.00,ACK
9577,31283515720.00,Data read: 1A
9578,31283536720.00,ACK
9579,31283548640.00,PEC OK: 32
9580,31283548640.00,Data read: 32
9581,31283569600.00,NACK
9582,31283583000.00,Stop
9583,31313006360.00,Start
9584,31313010000.00,Address write: 5A
9585,31313030920.00,ACK
9586,31313043240.00,Command: VOUT_OV_FAULT_RESPONSE (41)
9587,31313064120.00,ACK
9588,31313093000.00,Start repeat
9589,31313269720.00,Address read: 5A
9590,31313290640.00,ACK
9591,31313502280.00,Data read: 00
9592,31313523280.00,ACK
9593,31313535200.00,Data read: 23
9594,31313535200.00,PEC OK: 23
9595,31313556200.00,NACK
9596,31313569600.00,Stop
9597,31345009120.00,Start
9598,31345012720.00,Address write: 5A
9599,31345033640.00,ACK
9600,31345045960.00,Command: VOUT_OV_WARN_LIMIT (42)
9601,31345066840.00,ACK
9602,31345077680.00,Start repeat
9603,31345257440.00,Address read: 5A
9604,31345278360.00,ACK
9605,31345497640.00,Data read: 33
9606,31345518640.00,ACK
9607,31345530560.00,Data read: 19
9608,31345551560.00,ACK
9609,31345563480.00,PEC OK: 5A
9610,31345563480.00,Data read: 5A
9611,31345584480.00,NACK
9612,31345597880.00,Stop
9613,31377005160.00,Start
9614,31377008800.00,Address write: 5A
9615,31377029720.00,ACK
9616,31377042000.00,Command: VOUT_UV_WARN_LIMIT (43)
9617,31377062920.00,ACK
9618,31377073720.00,Start repeat
9619,31377256480.00,Address read: 5A
9620,31377277440.00,ACK
9621,31377498680.00,Data read: CD
9622,31377519680.00,ACK
9623,31377531600.00,Data read: 16
9624,31377552560.00,ACK
9625,31377564480.00,Data read: A3
9626,31377564480.00,PEC OK: A3
9627,31377585480.00,NACK
9628,31377598880.00,Stop
9629,31409002720.00,Start
9630,31409006360.00,Address write: 5A
9631,31409027280.00,ACK
9632,31409039560.00,Command: VOUT_UV_FAULT_LIMIT (44)
9633,31409060480.00,ACK
9634,31409071280.00,Start repeat
9635,31409257040.00,Address read: 5A
9636,31409277960.00,ACK
9637,31409501280.00,Data read: 9A
9638,31409522280.00,ACK
9639,31409534200.00,Data read: 15
9640,31409555200.00,ACK
9641,31409567120.00,Data read: AF
9642,31409567120.00,PEC OK: AF
9643,31409588120.00,NACK
9644,31409601480.00,Stop
9645,31441003280.00,Start
9646,31441006920.00,Address write: 5A
9647,31441027840.00,ACK
9648,31441040160.00,Command: VOUT_UV_FAULT_RESPONSE (45)
9649,31441061080.00,ACK
9650,31441071880.00,Start repeat
9651,31441260560.00,Address read: 5A
9652,31441281520.00,ACK
9653,31441501160.00,Data read: 00
9654,31441522160.00,ACK
9655,31441534080.00,Data read: 88
9656,31441534080.00,PEC OK: 88
9657,31441555080.00,NACK
9658,31441568480.00,Stop
9659,31474008440.00,Start
9660,31474012040.00,Address write: 5A
9661,31474032960.00,ACK
9662,31474045280.00,Command: IOUT_OC_FAULT_LIMIT (46)
9663,31474066200.00,ACK
9664,31474077000.00,Start repeat
9665,31474268760.00,Address read: 5A
9666,31474289720.00,ACK
9667,31474516960.00,Data read: 20
9668,31474537960.00,ACK
9669,31474549880.00,Data read: DB
9670,31474570880.00,ACK
9671,31474582800.00,Data read: 2A
9672,31474582800.00,PEC OK: 2A
9673,31474603800.00,NACK
9674,31474617200.00,Stop
9675,31505000840.00,Start
9676,31505004440.00,Address write: 5A
9677,31505025400.00,ACK
9678,31505037680.00,Command: IOUT_OC_FAULT_RESPONSE (47)
9679,31505058640.00,ACK
9680,31505069440.00,Start repeat
9681,31505264120.00,Address read: 5A
9682,31505285080.00,ACK
9683,31505508680.00,Data read: 00
9684,31505529680.00,ACK
9685,31505541600.00,PEC OK: 5E
9686,31505541600.00,Data read: 5E
9687,31505562600.00,NACK
9688,31505576240.00,Stop
9689,31537010760.00,Start
9690,31537014360.00,Address write: 5A
9691,31537035320.00,ACK
9692,31537047600.00,Command: IOUT_OC_LV_FAULT_LIMIT (48)
9693,31537068480.00,ACK
9694,31537079320.00,Start repeat
9695,31537277040.00,Address read: 5A
9696,31537297960.00,ACK
9697,31537529240.00,Data read: 00
9698,31537550240.00,ACK
9699,31537562160.00,Data read: BA
9700,31537583160.00,ACK
9701,31537595080.00,Data read: 60
9702,31537595080.00,PEC OK: 60
9703,31537616120.00,NACK
9704,31537635800.00,Stop
9705,31570007080.00,Start
9706,31570010720.00,Address write: 5A
9707,31570031640.00,ACK
9708,31570043960.00,Command: IOUT_OC_LV_FAULT_RESPONSE (49)
9709,31570064880.00,ACK
9710,31570075680.00,Start repeat
9711,31570276360.00,Address read: 5A
9712,31570297240.00,ACK
9713,31570524920.00,Data read: 00
9714,31570545880.00,ACK
9715,31570562200.00,PEC OK: 72
9716,31570562200.00,Data read: 72
9717,31570583200.00,NACK
9718,31570596600.00,Stop
9719,31600005080.00,Start
9720,31600008680.00,Address write: 5A
9721,31600029640.00,ACK
9722,31600041920.00,Command: IOUT_OC_WARN_LIMIT (4A)
9723,31600062880.00,ACK
9724,31600073680.00,Start repeat
9725,31600277400.00,Address read: 5A
9726,31600298320.00,ACK
9727,31600533560.00,Data read: C0
9728,31600554560.00,ACK
9729,31600570840.00,Data read: DA
9730,31600591840.00,ACK
9731,31600603760.00,Data read: 86
9732,31600603760.00,PEC OK: 86
9733,31600624760.00,NACK
9734,31600638160.00,Stop
9735,31631002080.00,Start
9736,31631005680.00,Address write: 5A
9737,31631026600.00,ACK
9738,31631038920.00,Command: IOUT_UC_FAULT_LIMIT (4B)
9739,31631059880.00,ACK
9740,31631070680.00,Start repeat
9741,31631277360.00,Address read: 5A
9742,31631298280.00,ACK
9743,31631535760.00,Data read: 00
9744,31631556760.00,ACK
9745,31631573040.00,Data read: 00
9746,31631594040.00,ACK
9747,31631605960.00,Data read: 75
9748,31631605960.00,PEC OK: 75
9749,31631626960.00,NACK
9750,31631640360.00,Stop
9751,31664003120.00,Start
9752,31664006760.00,Address write: 5A
9753,31664027680.00,ACK
9754,31664040000.00,Command: IOUT_UC_FAULT_RESPONSE (4C)
9755,31664060920.00,ACK
9756,31664071720.00,Start repeat
9757,31664281360.00,Address read: 5A
9758,31664302280.00,ACK
9759,31664536080.00,Data read: 00
9760,31664557080.00,ACK
9761,31664573400.00,Data read: B2
9762,31664573400.00,PEC OK: B2
9763,31664594400.00,NACK
9764,31664607800.00,Stop
9765,31695012560.00,Start
9766,31695016160.00,Address write: 5A
9767,31695037120.00,ACK
9768,31695049400.00,Command: OT_FAULT_LIMIT (4F)
9769,31695070360.00,ACK
9770,31695081160.00,Start repeat
9771,31695293840.00,Address read: 5A
9772,31695314800.00,ACK
9773,31695560400.00,Data read: 20
9774,31695581400.00,ACK
9775,31695593320.00,Data read: EB
9776,31695614320.00,ACK
9777,31695626240.00,Data read: 1C
9778,31695626240.00,PEC OK: 1C
9779,31695647280.00,NACK
9780,31695660680.00,Stop
9781,31728002760.00,Start
9782,31728006360.00,Address write: 5A
9783,31728027280.00,ACK
9784,31728039560.00,Command: OT_FAULT_RESPONSE (50)
9785,31728060480.00,ACK
9786,31728071280.00,Start repeat
9787,31728286920.00,Address read: 5A
9788,31728307880.00,ACK
9789,31728549920.00,Data read: 00
9790,31728570920.00,ACK
9791,31728582840.00,Data read: EA
9792,31728582840.00,PEC OK: EA
9793,31728603840.00,NACK
9794,31728617240.00,Stop
9795,31759009080.00,Start
9796,31759012720.00,Address write: 5A
9797,31759033640.00,ACK
9798,31759045960.00,Command: OT_WARN_LIMIT (51)
9799,31759066880.00,ACK
9800,31759077680.00,Start repeat
9801,31759296360.00,Address read: 5A
9802,31759317320.00,ACK
9803,31759567160.00,Data read: D0
9804,31759588160.00,ACK
9805,31759600080.00,Data read: EA
9806,31759621080.00,ACK
9807,31759633000.00,Data read: AC
9808,31759633000.00,PEC OK: AC
9809,31759654000.00,NACK
9810,31759667400.00,Stop
9811,31790013160.00,Start
9812,31790016800.00,Address write: 5A
9813,31790037720.00,ACK
9814,31790050000.00,Command: UT_WARN_LIMIT (52)
9815,31790070920.00,ACK
9816,31790095960.00,Start repeat
9817,31790317640.00,Address read: 5A
9818,31790338560.00,ACK
9819,31790585760.00,Data read: 00
9820,31790606760.00,ACK
9821,31790618680.00,Data read: 80
9822,31790639680.00,ACK
9823,31790651600.00,PEC OK: 3D
9824,31790651600.00,Data read: 3D
9825,31790672640.00,NACK
9826,31790686000.00,Stop
9827,31822008680.00,Start
9828,31822012320.00,Address write: 5A
9829,31822033240.00,ACK
9830,31822045560.00,Command: UT_FAULT_LIMIT (53)
9831,31822066480.00,ACK
9832,31822077320.00,Start repeat
9833,31822301960.00,Address read: 5A
9834,31822322920.00,ACK
9835,31822572120.00,Data read: 80
9836,31822593120.00,ACK
9837,31822605040.00,Data read: D5
9838,31822626040.00,ACK
9839,31822638000.00,Data read: 31
9840,31822638000.00,PEC OK: 31
9841,31822658960.00,NACK
9842,31822672360.00,Stop
9843,31854011400.00,Start
9844,31854015000.00,Address write: 5A
9845,31854035920.00,ACK
9846,31854048240.00,Command: UT_FAULT_RESPONSE (54)
9847,31854069160.00,ACK
9848,31854079960.00,Start repeat
9849,31854307560.00,Address read: 5A
9850,31854328480.00,ACK
9851,31854574040.00,Data read: 00
9852,31854595040.00,ACK
9853,31854607000.00,Data read: 41
9854,31854607000.00,PEC OK: 41
9855,31854628000.00,NACK
9856,31854641360.00,Stop
9857,31885004320.00,Start
9858,31885007960.00,Address write: 5A
9859,31885028880.00,ACK
9860,31885041160.00,Command: VIN_OV_FAULT_LIMIT (55)
9861,31885062120.00,ACK
9862,31885072920.00,Start repeat
9863,31885303600.00,Address read: 5A
9864,31885324520.00,ACK
9865,31885577720.00,Data read: 10
9866,31885598720.00,ACK
9867,31885610640.00,Data read: FA
9868,31885631640.00,ACK
9869,31885643560.00,Data read: 69
9870,31885643560.00,PEC OK: 69
9871,31885664600.00,NACK
9872,31885677960.00,Stop
9873,31917006000.00,Start
9874,31917009600.00,Address write: 5A
9875,31917030560.00,ACK
9876,31917042840.00,Command: VIN_OV_FAULT_RESPONSE (56)
9877,31917063800.00,ACK
9878,31917074600.00,Start repeat
9879,31917308160.00,Address read: 5A
9880,31917329120.00,ACK
9881,31917578720.00,Data read: 00
9882,31917599720.00,ACK
9883,31917611640.00,Data read: 97
9884,31917611640.00,PEC OK: 97
9885,31917632600.00,NACK
9886,31917646000.00,Stop
9887,31949011600.00,Start
9888,31949015240.00,Address write: 5A
9889,31949036160.00,ACK
9890,31949048440.00,Command: VIN_OV_WARN_LIMIT (57)
9891,31949069400.00,ACK
9892,31949080240.00,Start repeat
9893,31949316880.00,Address read: 5A
9894,31949337840.00,ACK
9895,31949595040.00,Data read: E8
9896,31949616040.00,ACK
9897,31949627960.00,Data read: F3
9898,31949649000.00,ACK
9899,31949660920.00,PEC OK: C6
9900,31949660920.00,Data read: C6
9901,31949681920.00,NACK
9902,31949695320.00,Stop
9903,31980008720.00,Start
9904,31980012320.00,Address write: 5A
9905,31980033240.00,ACK
9906,31980045560.00,Command: VIN_UV_WARN_LIMIT (58)
9907,31980066480.00,ACK
9908,31980077320.00,Start repeat
9909,31980316920.00,Address read: 5A
9910,31980337880.00,ACK
9911,31980597040.00,Data read: D0
9912,31980618040.00,ACK
9913,31980630200.00,Data read: F2
9914,31980651200.00,ACK
9915,31980663120.00,Data read: 42
9916,31980663120.00,PEC OK: 42
9917,31980684120.00,NACK
9918,31980701840.00,Stop
9919,32028013400.00,Start
9920,32028017040.00,Address write: 5A
9921,32028037960.00,ACK
9922,32028050280.00,Command: VIN_UV_FAULT_LIMIT (59)
9923,32028071200.00,ACK
9924,32028082040.00,Start repeat
9925,32028324640.00,Address read: 5A
9926,32028345600.00,ACK
9927,32028606800.00,Data read: A8
9928,32028627800.00,ACK
9929,32028644080.00,Data read: F2
9930,32028665080.00,ACK
9931,32028677000.00,Data read: 5E
9932,32028677000.00,PEC OK: 5E
9933,32028698000.00,NACK
9934,32028711400.00,Stop
9935,32059018320.00,Start
9936,32059021960.00,Address write: 5A
9937,32059042880.00,ACK
9938,32059055200.00,Command: VIN_UV_FAULT_RESPONSE (5A)
9939,32059076120.00,ACK
9940,32059086920.00,Start repeat
9941,32059332480.00,Address read: 5A
9942,32059353440.00,ACK
9943,32059610960.00,Data read: 00
9944,32059631960.00,ACK
9945,32059648240.00,Data read: 6D
9946,32059648240.00,PEC OK: 6D
9947,32059669240.00,NACK
9948,32059682640.00,Stop
9949,32092025760.00,Start
9950,32092029360.00,Address write: 5A
9951,32092050320.00,ACK
9952,32092062640.00,Command: IIN_OC_FAULT_LIMIT (5B)
9953,32092083600.00,ACK
9954,32092094400.00,Start repeat
9955,32092343040.00,Address read: 5A
9956,32092364000.00,ACK
9957,32092629160.00,Data read: 00
9958,32092650160.00,ACK
9959,32092666440.00,Data read: C3
9960,32092687440.00,ACK
9961,32092699400.00,Data read: 55
9962,32092699400.00,PEC OK: 55
9963,32092720360.00,NACK
9964,32092733800.00,Stop
9965,32123025400.00,Start
9966,32123029000.00,Address write: 5A
9967,32123049920.00,ACK
9968,32123062240.00,Command: IIN_OC_FAULT_RESPONSE (5C)
9969,32123083160.00,ACK
9970,32123093960.00,Start repeat
9971,32123345520.00,Address read: 5A
9972,32123366440.00,ACK
9973,32123648360.00,Data read: 00
9974,32123669360.00,ACK
9975,32123681280.00,Data read: 10
9976,32123681280.00,PEC OK: 10
9977,32123702280.00,NACK
9978,32123715680.00,Stop
9979,32154014280.00,Start
9980,32154018840.00,Address write: 5A
9981,32154039800.00,ACK
9982,32154052080.00,Command: IIN_OC_WARN_LIMIT (5D)
9983,32154073000.00,ACK
9984,32154083840.00,Start repeat
9985,32154338440.00,Address read: 5A
9986,32154359360.00,ACK
9987,32154633160.00,Data read: 80
9988,32154654160.00,ACK
9989,32154666080.00,Data read: C2
9990,32154687080.00,ACK
9991,32154699000.00,Data read: 90
9992,32154699000.00,PEC OK: 90
9993,32154720000.00,NACK
9994,32154733360.00,Stop
9995,32187023320.00,Start
9996,32187026960.00,Address write: 5A
9997,32187047880.00,ACK
9998,32187060200.00,Command: POWER_GOOD_ON (5E)
9999,32187081160.00,ACK
10000,32187091960.00,Start repeat
10001,32187349560.00,Address read: 5A
10002,32187370480.00,ACK
10003,32187646280.00,Data read: 00
10004,32187667280.00,ACK
10005,32187679200.00,Data read: 16
10006,32187700240.00,ACK
10007,32187712160.00,Data read: 3E
10008,32187712160.00,PEC OK: 3E
10009,32187733160.00,NACK
10010,32187746560.00,Stop
10011,32219016280.00,Start
10012,32219019920.00,Address write: 5A
10013,32219040840.00,ACK
10014,32219053120.00,Command: POWER_GOOD_OFF (5F)
10015,32219074120.00,ACK
10016,32219084960.00,Start repeat
10017,32219345520.00,Address read: 5A
10018,32219366480.00,ACK
10019,32219644080.00,Data read: 00
10020,32219665080.00,ACK
10021,32219677000.00,Data read: 14
10022,32219698000.00,ACK
10023,32219709920.00,Data read: 26
10024,32219709920.00,PEC OK: 26
10025,32219730920.00,NACK
10026,32219744320.00,Stop
10027,32250010440.00,Start
10028,32250014040.00,Address write: 5A
10029,32250034960.00,ACK
10030,32250047600.00,Command: TON_DELAY (60)
10031,32250068520.00,ACK
10032,32250079360.00,Start repeat
10033,32250342960.00,Address read: 5A
10034,32250363880.00,ACK
10035,32250643440.00,Data read: 20
10036,32250664440.00,ACK
10037,32250676360.00,Data read: EB
10038,32250697360.00,ACK
10039,32250709280.00,PEC OK: 00
10040,32250709280.00,Data read: 00
10041,32250730280.00,NACK
10042,32250743720.00,Stop
10043,32297009680.00,Start
10044,32297013280.00,Address write: 5A
10045,32297034240.00,ACK
10046,32297046520.00,Command: TON_RISE (61)
10047,32297067440.00,ACK
10048,32297078240.00,Start repeat
10049,32297344800.00,Address read: 5A
10050,32297365760.00,ACK
10051,32297642880.00,Data read: 20
10052,32297663880.00,ACK
10053,32297675800.00,Data read: F3
10054,32297696800.00,ACK
10055,32297708720.00,Data read: 5E
10056,32297708720.00,PEC OK: 5E
10057,32297729720.00,NACK
10058,32297743120.00,Stop
10059,32329016240.00,Start
10060,32329019880.00,Address write: 5A
10061,32329040800.00,ACK
10062,32329053080.00,Command: TON_MAX_FAULT_LIMIT (62)
10063,32329074000.00,ACK
10064,32329084840.00,Start repeat
10065,32329354400.00,Address read: 5A
10066,32329375360.00,ACK
10067,32329654480.00,Data read: E8
10068,32329675480.00,ACK
10069,32329687400.00,Data read: FB
10070,32329708400.00,ACK
10071,32329720320.00,Data read: 19
10072,32329720320.00,PEC OK: 19
10073,32329741320.00,NACK
10074,32329754720.00,Stop
10075,32361008120.00,Start
10076,32361011760.00,Address write: 5A
10077,32361032680.00,ACK
10078,32361044960.00,Command: TON_MAX_FAULT_RESPONSE (63)
10079,32361065920.00,ACK
10080,32361076720.00,Start repeat
10081,32361349240.00,Address read: 5A
10082,32361370160.00,ACK
10083,32361645680.00,Data read: 00
10084,32361666680.00,ACK
10085,32361678600.00,Data read: B6
10086,32361678600.00,PEC OK: B6
10087,32361699600.00,NACK
10088,32361713000.00,Stop
10089,32393014480.00,Start
10090,32393018080.00,Address write: 5A
10091,32393039040.00,ACK
10092,32393051320.00,Command: TOFF_DELAY (64)
10093,32393072240.00,ACK
10094,32393083080.00,Start repeat
10095,32393358600.00,Address read: 5A
10096,32393379560.00,ACK
10097,32393662720.00,Data read: 20
10098,32393683720.00,ACK
10099,32393695640.00,Data read: EB
10100,32393716640.00,ACK
10101,32393728560.00,Data read: 58
10102,32393728560.00,PEC OK: 58
10103,32393749600.00,NACK
10104,32393762960.00,Stop
10105,32425011640.00,Start
10106,32425015240.00,Address write: 5A
10107,32425036200.00,ACK
10108,32425048480.00,Command: TOFF_FALL (65)
10109,32425069440.00,ACK
10110,32425080240.00,Start repeat
10111,32425358760.00,Address read: 5A
10112,32425379680.00,ACK
10113,32425664760.00,Data read: 20
10114,32425685800.00,ACK
10115,32425697720.00,Data read: F3
10116,32425718720.00,ACK
10117,32425730640.00,Data read: 06
10118,32425730640.00,PEC OK: 06
10119,32425751640.00,NACK
10120,32425771520.00,Stop
10121,32456017800.00,Start
10122,32456021440.00,Address write: 5A
10123,32456042360.00,ACK
10124,32456054640.00,Command: TOFF_MAX_WARN_LIMIT (66)
10125,32456075600.00,ACK
10126,32456086440.00,Start repeat
10127,32456367960.00,Address read: 5A
10128,32456388920.00,ACK
10129,32456676040.00,Data read: E8
10130,32456697040.00,ACK
10131,32456713360.00,Data read: FB
10132,32456734360.00,ACK
10133,32456746280.00,Data read: 41
10134,32456746280.00,PEC OK: 41
10135,32456767280.00,NACK
10136,32456780680.00,Stop
10137,32488008320.00,Start
10138,32488011960.00,Address write: 5A
10139,32488032880.00,ACK
10140,32488045200.00,Command: POUT_OP_FAULT_LIMIT (68)
10141,32488066120.00,ACK
10142,32488076920.00,Start repeat
10143,32488361680.00,Address read: 5A
10144,32488382600.00,ACK
10145,32488671680.00,Data read: 80
10146,32488692680.00,ACK
10147,32488709000.00,Data read: FA
10148,32488730000.00,ACK
10149,32488741920.00,Data read: DF
10150,32488741920.00,PEC OK: DF
10151,32488762920.00,NACK
10152,32488776320.00,Stop
10153,32521013480.00,Start
10154,32521017120.00,Address write: 5A
10155,32521038040.00,ACK
10156,32521050360.00,Command: POUT_OP_FAULT_RESPONSE (69)
10157,32521071280.00,ACK
10158,32521082120.00,Start repeat
10159,32521369560.00,Address read: 5A
10160,32521390520.00,ACK
10161,32521676040.00,Data read: 00
10162,32521697000.00,ACK
10163,32521713320.00,Data read: 31
10164,32521713320.00,PEC OK: 31
10165,32521734320.00,NACK
10166,32521747720.00,Stop
10167,32551018640.00,Start
10168,32551022240.00,Address write: 5A
10169,32551043200.00,ACK
10170,32551055480.00,Command: POUT_OP_WARN_LIMIT (6A)
10171,32551076400.00,ACK
10172,32551087240.00,Start repeat
10173,32551377760.00,Address read: 5A
10174,32551398680.00,ACK
10175,32551691800.00,Data read: 58
10176,32551712800.00,ACK
10177,32551729080.00,Data read: FA
10178,32551750080.00,ACK
10179,32551762000.00,Data read: E1
10180,32551762000.00,PEC OK: E1
10181,32551783000.00,NACK
10182,32551796400.00,Stop
10183,32584014800.00,Start
10184,32584018400.00,Address write: 5A
10185,32584039360.00,ACK
10186,32584051640.00,Command: PIN_OP_WARN_LIMIT (6B)
10187,32584072600.00,ACK
10188,32584083400.00,Start repeat
10189,32584376920.00,Address read: 5A
10190,32584397880.00,ACK
10191,32584700160.00,Data read: 94
10192,32584721160.00,ACK
10193,32584733080.00,Data read: FA
10194,32584754080.00,ACK
10195,32584766000.00,Data read: E6
10196,32584766000.00,PEC OK: E6
10197,32584787000.00,NACK
10198,32584800400.00,Stop
10199,32615016720.00,Start
10200,32615020360.00,Address write: 5A
10201,32615041280.00,ACK
10202,32615053600.00,Command: STATUS_BYTE (78)
10203,32615074520.00,ACK
10204,32615085360.00,Start repeat
10205,32615381800.00,Address read: 5A
10206,32615402720.00,ACK
10207,32615700520.00,Data read: 80
10208,32615721560.00,ACK
10209,32615733480.00,Data read: 71
10210,32615733480.00,PEC OK: 71
10211,32615754480.00,NACK
10212,32615767880.00,Stop
10213,32648010200.00,Start
10214,32648013800.00,Address write: 5A
10215,32648034760.00,ACK
10216,32648047040.00,Command: STATUS_WORD (79)
10217,32648068000.00,ACK
10218,32648078840.00,Start repeat
10219,32648378320.00,Address read: 5A
10220,32648399280.00,ACK
10221,32648702800.00,Data read: 80
10222,32648723800.00,ACK
10223,32648735720.00,Data read: 00
10224,32648756720.00,ACK
10225,32648768640.00,PEC OK: 46
10226,32648768640.00,Data read: 46
10227,32648789640.00,NACK
10228,32648803040.00,Stop
10229,32679015560.00,Start
10230,32679019200.00,Address write: 5A
10231,32679040120.00,ACK
10232,32679052400.00,Command: STATUS_VOUT (7A)
10233,32679073360.00,ACK
10234,32679084160.00,Start repeat
10235,32679386640.00,Address read: 5A
10236,32679407560.00,ACK
10237,32679707680.00,Data read: 00
10238,32679728680.00,ACK
10239,32679740640.00,PEC OK: 2E
10240,32679740640.00,Data read: 2E
10241,32679761600.00,NACK
10242,32679775000.00,Stop
10243,32710019680.00,Start
10244,32710023280.00,Address write: 5A
10245,32710044200.00,ACK
10246,32710056520.00,Command: STATUS_IOUT (7B)
10247,32710077520.00,ACK
10248,32710088360.00,Start repeat
10249,32710393800.00,Address read: 5A
10250,32710414760.00,ACK
10251,32710716840.00,Data read: 00
10252,32710737840.00,ACK
10253,32710749960.00,PEC OK: 45
10254,32710749960.00,Data read: 45
10255,32710770960.00,NACK
10256,32710784360.00,Stop
10257,32742021280.00,Start
10258,32742024920.00,Address write: 5A
10259,32742045840.00,ACK
10260,32742082160.00,Command: STATUS_INPUT (7C)
10261,32742103080.00,ACK
10262,32742113880.00,Start repeat
10263,32742422320.00,Address read: 5A
10264,32742443240.00,ACK
10265,32742742760.00,Data read: 00
10266,32742763760.00,ACK
10267,32742775680.00,PEC OK: 53
10268,32742775680.00,Data read: 53
10269,32742796680.00,NACK
10270,32742810080.00,Stop
10271,32773016480.00,Start
10272,32773020080.00,Address write: 5A
10273,32773041000.00,ACK
10274,32773053320.00,Command: STATUS_TEMPERATURE (7D)
10275,32773074320.00,ACK
10276,32773085120.00,Start repeat
10277,32773396560.00,Address read: 5A
10278,32773417480.00,ACK
10279,32773718920.00,Data read: 00
10280,32773739920.00,ACK
10281,32773751840.00,PEC OK: 38
10282,32773751840.00,Data read: 38
10283,32773772840.00,NACK
10284,32773786240.00,Stop
10285,32806020560.00,Start
10286,32806024200.00,Address write: 5A
10287,32806045120.00,ACK
10288,32806057400.00,Command: STATUS_CML (7E)
10289,32806078400.00,ACK
10290,32806089200.00,Start repeat
10291,32806403600.00,Address read: 5A
10292,32806424520.00,ACK
10293,32806728000.00,Data read: 00
10294,32806749000.00,ACK
10295,32806760920.00,Data read: 85
10296,32806760920.00,PEC OK: 85
10297,32806781920.00,NACK
10298,32806795320.00,Stop
10299,32837019840.00,Start
10300,32837023480.00,Address write: 5A
10301,32837044400.00,ACK
10302,32837056680.00,Command: STATUS_OTHER (7F)
10303,32837077680.00,ACK
10304,32837088520.00,Start repeat
10305,32837405920.00,Address read: 5A
10306,32837426840.00,ACK
10307,32837732280.00,Data read: 00
10308,32837753280.00,ACK
10309,32837765200.00,Data read: EE
10310,32837765200.00,PEC OK: EE
10311,32837786240.00,NACK
10312,32837799600.00,Stop
10313,32869017560.00,Start
10314,32869021160.00,Address write: 5A
10315,32869042120.00,ACK
10316,32869054400.00,Command: STATUS_MFR_SPECIFIC (80)
10317,32869075240.00,ACK
10318,32869086080.00,Start repeat
10319,32869406480.00,Address read: 5A
10320,32869427400.00,ACK
10321,32869734920.00,Data read: 00
10322,32869755920.00,ACK
10323,32869767840.00,Data read: C5
10324,32869767840.00,PEC OK: C5
10325,32869788840.00,NACK
10326,32869816480.00,Stop
10327,32900023080.00,Start
10328,32900026680.00,Address write: 5A
10329,32900047600.00,ACK
10330,32900059920.00,Command: STATUS_FANS_1_2 (81)
10331,32900080800.00,ACK
10332,32900091600.00,Start repeat
10333,32900415000.00,Address read: 5A
10334,32900435920.00,ACK
10335,32900745360.00,Data read: 00
10336,32900766360.00,ACK
10337,32900782640.00,Data read: AE
10338,32900782640.00,PEC OK: AE
10339,32900803640.00,NACK
10340,32900817040.00,Stop
10341,32933021560.00,Start
10342,32933025160.00,Address write: 5A
10343,32933046080.00,ACK
10344,32933058360.00,Command: STATUS_FANS_3_4 (82)
10345,32933079240.00,ACK
10346,32933090080.00,Start repeat
10347,32933416480.00,Address read: 5A
10348,32933437400.00,ACK
10349,32933748560.00,Data read: 00
10350,32933769560.00,ACK
10351,32933785840.00,Data read: 13
10352,32933785840.00,PEC OK: 13
10353,32933806880.00,NACK
10354,32933820240.00,Stop
10355,32964018840.00,Start
10356,32964022440.00,Address write: 5A
10357,32964043400.00,ACK
10358,32964055680.00,Command: READ_KWH_IN (83)
10359,32964076560.00,ACK
10360,32964087400.00,Start repeat
10361,32964416840.00,Address read: 5A
10362,32964437800.00,ACK
10363,32964766000.00,Data read: 00
10364,32964787000.00,ACK
10365,32964805480.00,Data read: 00
10366,32964826480.00,ACK
10367,32964838400.00,Data read: 00
10368,32964859400.00,ACK
10369,32964871320.00,Data read: 00
10370,32964892320.00,ACK
10371,32964904240.00,Data read: 36
10372,32964904240.00,PEC OK: 36
10373,32964925240.00,NACK
10374,32964938640.00,Stop
10375,32995023920.00,Start
10376,32995027520.00,Address write: 5A
10377,32995048440.00,ACK
10378,32995060760.00,Command: READ_KWH_OUT (84)
10379,32995081640.00,ACK
10380,32995092440.00,Start repeat
10381,32995424880.00,Address read: 5A
10382,32995445840.00,ACK
10383,32995776240.00,Data read: 00
10384,32995797240.00,ACK
10385,32995815480.00,Data read: 00
10386,32995836480.00,ACK
10387,32995848400.00,Data read: 00
10388,32995869400.00,ACK
10389,32995881320.00,Data read: 00
10390,32995902320.00,ACK
10391,32995914240.00,Data read: E9
10392,32995914240.00,PEC OK: E9
10393,32995935240.00,NACK
10394,32995948640.00,Stop
10395,33027019760.00,Start
10396,33027023360.00,Address write: 5A
10397,33027044320.00,ACK
10398,33027056600.00,Command: READ_KWH_CONFIG (85)
10399,33027077480.00,ACK
10400,33027088320.00,Start repeat
10401,33027423760.00,Address read: 5A
10402,33027444680.00,ACK
10403,33027767440.00,Data read: 00
10404,33027788440.00,ACK
10405,33027804720.00,Data read: 00
10406,33027825720.00,ACK
10407,33027837640.00,Data read: 1B
10408,33027837640.00,PEC OK: 1B
10409,33027858600.00,NACK
10410,33027872040.00,Stop
10411,33059020240.00,Start
10412,33059024080.00,Address write: 5A
10413,33059045040.00,ACK
10414,33059057320.00,Command: READ_EIN (86)
10415,33059078200.00,ACK
10416,33059089040.00,Start repeat
10417,33059427480.00,Address read: 5A
10418,33059448440.00,ACK
10419,33059806960.00,Data read: 06
10420,33059827960.00,ACK
10421,33059839920.00,Data read: 00
10422,33059860880.00,ACK
10423,33059872800.00,Data read: 5E
10424,33059893760.00,ACK
10425,33059905680.00,Data read: 35
10426,33059926680.00,ACK
10427,33059938640.00,Data read: 80
10428,33059959640.00,ACK
10429,33059971560.00,Data read: 31
10430,33059992560.00,ACK
10431,33060004480.00,Data read: 00
10432,33060025480.00,ACK
10433,33060037400.00,Data read: 62
10434,33060037400.00,PEC OK: 62
10435,33060058440.00,NACK
10436,33060071800.00,Stop
10437,33090017600.00,Start
10438,33090021440.00,Address write: 5A
10439,33090042360.00,ACK
10440,33090054640.00,Command: READ_EOUT (87)
10441,33090075560.00,ACK
10442,33090086400.00,Start repeat
10443,33090427840.00,Address read: 5A
10444,33090448760.00,ACK
10445,33090809320.00,Data read: 06
10446,33090830320.00,ACK
10447,33090842240.00,Data read: 78
10448,33090863240.00,ACK
10449,33090875160.00,Data read: F0
10450,33090896160.00,ACK
10451,33090908080.00,Data read: 2A
10452,33090929080.00,ACK
10453,33090941000.00,Data read: 84
10454,33090962000.00,ACK
10455,33090973920.00,Data read: 31
10456,33090994960.00,ACK
10457,33091006880.00,Data read: 00
10458,33091027880.00,ACK
10459,33091039800.00,Data read: 38
10460,33091039800.00,PEC OK: 38
10461,33091060800.00,NACK
10462,33091074200.00,Stop
10463,33121016640.00,Start
10464,33121020280.00,Address write: 5A
10465,33121041200.00,ACK
10466,33121053480.00,Command: READ_VIN (88)
10467,33121074360.00,ACK
10468,33121085200.00,Start repeat
10469,33121429600.00,Address read: 5A
10470,33121450560.00,ACK
10471,33121784040.00,Data read: 98
10472,33121805000.00,ACK
10473,33121816920.00,Data read: F3
10474,33121837920.00,ACK
10475,33121849840.00,Data read: 7B
10476,33121849840.00,PEC OK: 7B
10477,33121870840.00,NACK
10478,33121884240.00,Stop
10479,33154015920.00,Start
10480,33154019520.00,Address write: 5A
10481,33154040480.00,ACK
10482,33154052760.00,Command: READ_IIN (89)
10483,33154073640.00,ACK
10484,33154084480.00,Start repeat
10485,33154432080.00,Address read: 5A
10486,33154453000.00,ACK
10487,33154790440.00,Data read: 80
10488,33154811440.00,ACK
10489,33154823360.00,Data read: BA
10490,33154844320.00,ACK
10491,33154856240.00,Data read: 6A
10492,33154856240.00,PEC OK: 6A
10493,33154877280.00,NACK
10494,33154890680.00,Stop
10495,33185019800.00,Start
10496,33185023440.00,Address write: 5A
10497,33185044360.00,ACK
10498,33185056680.00,Command: READ_VCAP (8A)
10499,33185077560.00,ACK
10500,33185088400.00,Start repeat
10501,33185438800.00,Address read: 5A
10502,33185459720.00,ACK
10503,33185797400.00,Data read: 98
10504,33185818400.00,ACK
10505,33185830320.00,Data read: F3
10506,33185851320.00,ACK
10507,33185863240.00,Data read: 57
10508,33185863240.00,PEC OK: 57
10509,33185884240.00,NACK
10510,33185897640.00,Stop
10511,33216022760.00,Start
10512,33216026360.00,Address write: 5A
10513,33216047280.00,ACK
10514,33216059600.00,Command: READ_VOUT (8B)
10515,33216080520.00,ACK
10516,33216096880.00,Start repeat
10517,33216450240.00,Address read: 5A
10518,33216471200.00,ACK
10519,33216806440.00,Data read: 00
10520,33216827440.00,ACK
10521,33216839360.00,Data read: 18
10522,33216860320.00,ACK
10523,33216872240.00,Data read: 97
10524,33216872240.00,PEC OK: 97
10525,33216893240.00,NACK
10526,33216906640.00,Stop
10527,33249019720.00,Start
10528,33249023360.00,Address write: 5A
10529,33249044280.00,ACK
10530,33249056560.00,Command: READ_IOUT (8C)
10531,33249077480.00,ACK
10532,33249088320.00,Start repeat
10533,33249444680.00,Address read: 5A
10534,33249465640.00,ACK
10535,33249802680.00,Data read: 50
10536,33249823720.00,ACK
10537,33249835640.00,Data read: DA
10538,33249856640.00,ACK
10539,33249868560.00,Data read: B9
10540,33249868560.00,PEC OK: B9
10541,33249889560.00,NACK
10542,33249902920.00,Stop
10543,33281014800.00,Start
10544,33281018440.00,Address write: 5A
10545,33281039360.00,ACK
10546,33281051680.00,Command: READ_TEMPERATURE_1 (8D)
10547,33281072600.00,ACK
10548,33281083400.00,Start repeat
10549,33281442800.00,Address read: 5A
10550,33281463720.00,ACK
10551,33281802760.00,Data read: 30
10552,33281823760.00,ACK
10553,33281835680.00,Data read: E2
10554,33281856680.00,ACK
10555,33281868600.00,PEC OK: F2
10556,33281868600.00,Data read: F2
10557,33281889640.00,NACK
10558,33281903000.00,Stop
10559,33312018160.00,Start
10560,33312021760.00,Address write: 5A
10561,33312042720.00,ACK
10562,33312055000.00,Command: READ_TEMPERATURE_2 (8E)
10563,33312075920.00,ACK
10564,33312086760.00,Start repeat
10565,33312449120.00,Address read: 5A
10566,33312470080.00,ACK
10567,33312811120.00,Data read: B0
10568,33312832120.00,ACK
10569,33312844080.00,Data read: E2
10570,33312865080.00,ACK
10571,33312894840.00,Data read: 7E
10572,33312894840.00,PEC OK: 7E
10573,33312915840.00,NACK
10574,33312929240.00,Stop
10575,33344023880.00,Start
10576,33344027480.00,Address write: 5A
10577,33344048440.00,ACK
10578,33344060720.00,Command: READ_TEMPERATURE_3 (8F)
10579,33344081680.00,ACK
10580,33344092480.00,Start repeat
10581,33344457840.00,Address read: 5A
10582,33344478800.00,ACK
10583,33344821800.00,Data read: 20
10584,33344842800.00,ACK
10585,33344859080.00,Data read: E3
10586,33344880040.00,ACK
10587,33344891960.00,Data read: 8E
10588,33344891960.00,PEC OK: 8E
10589,33344913000.00,NACK
10590,33344926400.00,Stop
10591,33375023160.00,Start
10592,33375026800.00,Address write: 5A
10593,33375047720.00,ACK
10594,33375060000.00,Command: READ_FAN_SPEED_1 (90)
10595,33375080880.00,ACK
10596,33375091720.00,Start repeat
10597,33375460080.00,Address read: 5A
10598,33375481040.00,ACK
10599,33375826280.00,Data read: EE
10600,33375847280.00,ACK
10601,33375863600.00,Data read: 22
10602,33375884600.00,ACK
10603,33375896520.00,Data read: 49
10604,33375896520.00,PEC OK: 49
10605,33375917520.00,NACK
10606,33375930920.00,Stop
10607,33422025640.00,Start
10608,33422029240.00,Address write: 5A
10609,33422050160.00,ACK
10610,33422062480.00,Command: READ_FAN_SPEED_2 (91)
10611,33422083360.00,ACK
10612,33422094200.00,Start repeat
10613,33422465560.00,Address read: 5A
10614,33422486480.00,ACK
10615,33422833520.00,Data read: E2
10616,33422854480.00,ACK
10617,33422870800.00,Data read: 22
10618,33422891760.00,ACK
10619,33422903720.00,Data read: A3
10620,33422903720.00,PEC OK: A3
10621,33422924680.00,NACK
10622,33422938120.00,Stop
10623,33454024480.00,Start
10624,33454028080.00,Address write: 5A
10625,33454049040.00,ACK
10626,33454061320.00,Command: READ_FAN_SPEED_3 (92)
10627,33454082240.00,ACK
10628,33454093040.00,Start repeat
10629,33454467400.00,Address read: 5A
10630,33454488320.00,ACK
10631,33454837040.00,Data read: 00
10632,33454858040.00,ACK
10633,33454874360.00,Data read: 00
10634,33454895360.00,ACK
10635,33454907240.00,Data read: 1E
10636,33454907240.00,PEC OK: 1E
10637,33454928280.00,NACK
10638,33454941640.00,Stop
10639,33485020160.00,Start
10640,33485023800.00,Address write: 5A
10641,33485044720.00,ACK
10642,33485057000.00,Command: READ_FAN_SPEED_4 (93)
10643,33485077920.00,ACK
10644,33485088760.00,Start repeat
10645,33485466120.00,Address read: 5A
10646,33485487040.00,ACK
10647,33485837760.00,Data read: 00
10648,33485858760.00,ACK
10649,33485875040.00,Data read: 00
10650,33485896040.00,ACK
10651,33485907960.00,Data read: 08
10652,33485907960.00,PEC OK: 08
10653,33485928960.00,NACK
10654,33485942360.00,Stop
10655,33517016680.00,Start
10656,33517020320.00,Address write: 5A
10657,33517041240.00,ACK
10658,33517053520.00,Command: READ_DUTY_CYCLE (94)
10659,33517074440.00,ACK
10660,33517085240.00,Start repeat
10661,33517465600.00,Address read: 5A
10662,33517486520.00,ACK
10663,33517843640.00,Data read: 00
10664,33517864640.00,ACK
10665,33517876560.00,Data read: 00
10666,33517897560.00,ACK
10667,33517909480.00,Data read: 6A
10668,33517909480.00,PEC OK: 6A
10669,33517930480.00,NACK
10670,33517943880.00,Stop
10671,33549016960.00,Start
10672,33549020600.00,Address write: 5A
10673,33549041520.00,ACK
10674,33549053800.00,Command: READ_FREQUENCY (95)
10675,33549074760.00,ACK
10676,33549085560.00,Start repeat
10677,33549468880.00,Address read: 5A
10678,33549489840.00,ACK
10679,33549849280.00,Data read: 0D
10680,33549870280.00,ACK
10681,33549882200.00,Data read: 3B
10682,33549903200.00,ACK
10683,33549915160.00,Data read: 34
10684,33549915160.00,PEC OK: 34
10685,33549936160.00,NACK
10686,33549949520.00,Stop
10687,33581022680.00,Start
10688,33581026280.00,Address write: 5A
10689,33581047240.00,ACK
10690,33581059520.00,Command: READ_POUT (96)
10691,33581080440.00,ACK
10692,33581091280.00,Start repeat
10693,33581477560.00,Address read: 5A
10694,33581498520.00,ACK
10695,33581859920.00,Data read: 78
10696,33581880920.00,ACK
10697,33581892840.00,Data read: F3
10698,33581913840.00,ACK
10699,33581925760.00,Data read: 9B
10700,33581925760.00,PEC OK: 9B
10701,33581946800.00,NACK
10702,33581960160.00,Stop
10703,33612019920.00,Start
10704,33612023560.00,Address write: 5A
10705,33612044480.00,ACK
10706,33612056760.00,Command: READ_PIN (97)
10707,33612077720.00,ACK
10708,33612088560.00,Start repeat
10709,33612477840.00,Address read: 5A
10710,33612498800.00,ACK
10711,33612862400.00,Data read: 28
10712,33612883400.00,ACK
10713,33612895320.00,Data read: FA
10714,33612916320.00,ACK
10715,33612928280.00,PEC OK: BE
10716,33612928280.00,Data read: BE
10717,33612949240.00,NACK
10718,33612962680.00,Stop
10719,33645023520.00,Start
10720,33645027160.00,Address write: 5A
10721,33645048080.00,ACK
10722,33645060400.00,Command: PMBUS_REVISION (98)
10723,33645081280.00,ACK
10724,33645092080.00,Start repeat
10725,33645484360.00,Address read: 5A
10726,33645505280.00,ACK
10727,33645864760.00,Data read: 33
10728,33645885760.00,ACK
10729,33645897680.00,Data read: AF
10730,33645897680.00,PEC OK: AF
10731,33645918680.00,NACK
10732,33645932080.00,Stop
10733,33691025640.00,Start
10734,33691029480.00,Address write: 5A
10735,33691050440.00,ACK
10736,33691062720.00,Command: MFR_ID (99)
10737,33691083640.00,ACK
10738,33691114200.00,Start repeat
10739,33691509560.00,Address read: 5A
10740,33691530480.00,ACK
10741,33691944920.00,Data read: 0A
10742,33691965920.00,ACK
10743,33691977840.00,Data read: 4D
10744,33691998840.00,ACK
10745,33692010760.00,Data read: 46
10746,33692031800.00,ACK
10747,33692043720.00,Data read: 52
10748,33692064720.00,ACK
10749,33692076600.00,Data read: 5F
10750,33692097640.00,ACK
10751,33692114760.00,Data read: 49
10752,33692135760.00,ACK
10753,33692147680.00,Data read: 44
10754,33692168680.00,ACK
10755,33692180600.00,Data read: 5F
10756,33692201600.00,ACK
10757,33692213560.00,Data read: 30
10758,33692234560.00,ACK
10759,33692246480.00,Data read: 30
10760,33692267520.00,ACK
10761,33692279440.00,Data read: 31
10762,33692300440.00,ACK
10763,33692312360.00,Data read: 0B
10764,33692312360.00,PEC OK: 0B
10765,33692333360.00,NACK
10766,33692346760.00,Stop
10767,33724021680.00,Start
10768,33724025520.00,Address write: 5A
10769,33724046440.00,ACK
10770,33724058760.00,Command: MFR_MODEL (9A)
10771,33724079640.00,ACK
10772,33724090480.00,Start repeat
10773,33724488760.00,Address read: 5A
10774,33724509680.00,ACK
10775,33724943040.00,Data read: 0D
10776,33724964040.00,ACK
10777,33724975960.00,Data read: 4D
10778,33724996960.00,ACK
10779,33725008880.00,Data read: 46
